Sample in Buffer	Sample in Window	addra_0	chipID	douta_0m	douta_1m	douta_2m	douta_3m	douta_4m	douta_5m	douta_6m	douta_7m
0	0	00	4	0C1B07	089A80	0D1C0F	19D68A	0631EC	12A787	033082	0F8187	
1	1	00	3	0C1B07	089A80	0D1C0F	19D68A	123807	12A787	033082	0F8187	
2	2	00	3	0C1B07	089A80	0D1C0F	19D68A	123807	12A787	033082	0F8187	
3	3	00	2	0C1B07	089A80	0D1C0F	0D8584	123807	12A787	033082	0F8187	
4	4	00	1	0C1B07	089A80	0D1C0F	0DE85B	123807	12A787	033082	0F8187	
5	5	00	4	0C1B07	089A80	117D57	0DE85B	123807	12A787	033082	0F8187	
6	6	00	4	0C1B07	188E5F	117D57	0DE85B	123807	12A787	033082	0F8187	
7	7	00	2	0C1B07	188E5F	117D57	0DE85B	1E6450	12A787	033082	0F8187	
8	8	00	2	0C1B07	188E5F	117D57	0DE85B	121860	12A787	033082	0F8187	
9	9	00	0	0C1B07	188E5F	1963E7	0DE85B	121860	12A787	033082	0F8187	
10	10	01	6	044167	188E5F	1932EE	0DE85B	121860	12A787	033082	0F8187	
11	11	01	4	044167	188E5F	1932EE	0DE85B	121860	12A787	0F646F	0F8187	
12	12	01	0	044167	188E5F	1932EE	0DE85B	121860	12A787	0F646F	0F8187	
13	13	01	3	044167	188E5F	1932EE	0DE85B	024F00	12A787	0F646F	0F8187	
14	14	01	0	043F89	188E5F	1932EE	0DE85B	024F00	12A787	0F646F	0F8187	
15	15	01	0	043F89	188E5F	1932EE	15DC8B	024F00	12A787	0F646F	0F8187	
16	16	01	5	186E05	188E5F	1932EE	15DC8B	024F00	12A787	0F646F	0F8187	
17	17	01	4	1C3E82	188E5F	1932EE	15DC8B	024F00	12A787	0F646F	0F8187	
18	18	01	4	1C3E82	188E5F	1932EE	15DC8B	024F00	0EAA82	0F646F	0F8187	
19	19	01	7	1C3E82	188E5F	1932EE	15DC8B	0E068F	0EAA82	0F646F	0F8187	
20	20	02	1	1C3E82	188E5F	1932EE	15DC8B	0E130F	0EAA82	0F646F	17A30D	
21	21	02	4	1C3E82	04C784	1932EE	15DC8B	0E130F	0EAA82	0F646F	17A30D	
22	22	02	5	1C3E82	04C784	1932EE	15DC8B	0E130F	0EAA82	0F646F	17A30D	
23	23	02	7	1C3E82	04C784	1932EE	15DC8B	162304	0EAA82	0F646F	17A30D	
24	24	02	2	1C3E82	04C784	1932EE	15DC8B	162304	1EB007	0F646F	17A30D	
25	25	02	2	1C3E82	04C784	1932EE	15DC8B	162304	1EB007	0F646F	03AB14	
26	26	02	7	1C3E82	04C784	1D091E	15DC8B	162304	1EB007	0F646F	03AB14	
27	27	02	7	1C3E82	04C784	0D2F2F	15DC8B	162304	1EB007	0F646F	03AB14	
28	28	02	6	1C3E82	04C784	0D2F2F	15DC8B	162304	1EB007	0F646F	13CD25	
29	29	02	6	1C3E82	04C784	0D2F2F	15DC8B	162304	1EB007	0F646F	139B65	
30	30	03	1	1C3E82	04C784	0D2F2F	15DC8B	162304	1EB007	173BEB	139B65	
31	31	03	1	1C3E82	00DEE5	0D2F2F	15DC8B	162304	1EB007	173BEB	139B65	
32	32	03	2	1C3E82	00DEE5	0D2F2F	15DC8B	162304	1EB007	173BEB	139B65	
33	33	03	5	1C3E82	00CA0B	0D2F2F	15DC8B	162304	1EB007	173BEB	139B65	
34	34	03	7	1C3E82	00CA0B	094F88	15DC8B	162304	1EB007	173BEB	139B65	
35	35	03	4	1C3E82	00CA0B	094F88	15DC8B	162304	1EDC08	173BEB	139B65	
36	36	03	1	1C3E82	00CA0B	094F88	15DC8B	162304	1EDC08	173BEB	03F989	
37	37	03	6	1C3E82	00CA0B	094F88	15DC8B	16230A	1EDC08	173BEB	03F989	
38	38	03	1	1C3E82	14C48D	094F88	15DC8B	16230A	1EDC08	173BEB	03F989	
39	39	03	3	1C3E82	14C48D	094F88	15DC8B	16230A	1EDC08	1B4284	03F989	
40	40	04	7	1C3E82	1C8188	094F88	1DD50D	16230A	1EDC08	1B4284	03F989	
41	41	04	4	1C3E82	1C8188	094F88	1DD50D	16230A	1EDC08	1B4284	03AD53	
42	42	04	0	1C3E82	1C8188	094F88	1DD50D	16230A	1EDC08	1B4284	03AD53	
43	43	04	2	1C3E82	1C8188	094F88	1DD50D	066403	1EDC08	1B4284	03AD53	
44	44	04	4	041B07	1C8188	094F88	1DD50D	066403	1EDC08	1B4284	03AD53	
45	45	04	4	041B07	1C8188	051C0F	1DD50D	066403	1EDC08	1B4284	03AD53	
46	46	04	2	041B07	1C8188	051C0F	1DD50D	1A4002	1EDC08	1B4284	03AD53	
47	47	04	1	041B07	1C8188	051C0F	1DD50D	064A15	1EDC08	1B4284	03AD53	
48	48	04	2	041B07	1C8188	097D57	1DD50D	064A15	1EDC08	1B4284	03AD53	
49	49	04	2	041B07	0C8E5F	097D57	1DD50D	064A15	1EDC08	1B4284	03AD53	
50	50	05	4	041B07	0C8E5F	0D32EE	1DD50D	064A15	1EDC08	1B4284	03AD53	
51	51	05	3	041B07	0C8E5F	0D32EE	1DD50D	0A1860	1EDC08	1B4284	03AD53	
52	52	05	7	041B07	0C8E5F	0D32EE	1DD50D	0A1860	1EDC08	1B4284	03AD53	
53	53	05	0	041B07	0C8E5F	0D32EE	05D204	0A1860	1EDC08	1B4284	03AD53	
54	54	05	1	041B07	0C8E5F	0D32EE	05D204	0A1860	1EDC08	1B4284	078187	
55	55	05	7	0C6E05	0C8E5F	0D32EE	05D204	0A1860	1EDC08	1B4284	078187	
56	56	05	5	0C6E05	00B080	0D32EE	05D204	0A1860	1EDC08	1B4284	078187	
57	57	05	0	0C6E05	00B080	0D32EE	05D204	0A1860	1EDC08	1B4284	078187	
58	58	05	2	0C6E05	00B080	0D32EE	05D204	0A1860	02E50B	1B4284	078187	
59	59	05	2	045414	00B080	0D32EE	05D204	0A1860	02E50B	1B4284	078187	
60	60	06	6	045414	00B080	0D4B91	05D204	0A1860	02E50B	1B4284	078187	
61	61	06	6	045414	00B080	0D4B91	05D204	0A1860	02E50B	0F3E51	078187	
62	62	06	7	045414	00B080	0D4B91	05D204	0A1860	02E50B	0F3E51	078187	
63	63	06	4	045414	00B080	0D4B91	05D204	0A1860	02E50B	070A86	078187	
64	64	06	3	045414	00B080	0D4B91	05D204	0A1860	02E50B	070A86	0B9AD2	
65	65	06	6	045414	00B080	0D4B91	05D204	065023	02E50B	070A86	0B9AD2	
66	66	06	1	045414	00B080	0D4B91	019FE2	065023	02E50B	070A86	0B9AD2	
67	67	06	5	045414	00B080	0D4B91	019FE2	065023	02E50B	0376A6	0B9AD2	
68	68	06	3	045414	10C6EA	0D4B91	019FE2	065023	02E50B	0376A6	0B9AD2	
69	69	06	6	045414	10C6EA	0D4B91	019FE2	065023	169D6E	0376A6	0B9AD2	
70	70	07	4	045414	10C6EA	0D4B91	1D9FE2	065023	169D6E	1F76A6	0B9AD2	
71	71	07	6	045414	10C6EA	0D4B91	1D9FE2	02413C	169D6E	1F76A6	0B9AD2	
72	72	07	6	045414	10C6EA	0D4B91	1D9FE2	02413C	169D6E	1F76A6	0B9AD2	
73	73	07	6	045414	10C6EA	0D4B91	1D9FE2	02413C	169D6E	033082	0B9AD2	
74	74	07	2	045414	10C6EA	0D4B91	1D9FE2	02413C	169D6E	0B6C06	0B9AD2	
75	75	07	5	045414	10C6EA	0D4B91	1D9FE2	02413C	169D6E	1F3082	0B9AD2	
76	76	07	5	045414	10C6EA	057780	1D9FE2	02413C	169D6E	1F3082	0B9AD2	
77	77	07	5	045414	10C6EA	057780	1D9FE2	02413C	129E0C	1F3082	0B9AD2	
78	78	07	4	045414	10C6EA	057780	1D9FE2	02413C	06A959	1F3082	0B9AD2	
79	79	07	2	045414	10C6EA	057780	1D9FE2	02413C	06BADE	1F3082	0B9AD2	
80	80	08	6	045414	10C6EA	116719	1D9FE2	065093	06BADE	1F3082	0B9AD2	
81	81	08	1	045414	10C6EA	116719	1D9FE2	065093	06BADE	1B1C5E	0B9AD2	
82	82	08	2	045414	10C6EA	116719	1D9FE2	065093	06BADE	1B1C5E	0B9AD2	
83	83	08	1	045414	0CC48D	116719	1D9FE2	065093	06BADE	1B1C5E	0B9AD2	
84	84	08	3	045414	0CC48D	1D4900	1D9FE2	065093	06BADE	1B1C5E	0B9AD2	
85	85	08	6	045414	14C61D	1D4900	1D9FE2	065093	06BADE	1B1C5E	0B9AD2	
86	86	08	4	045414	14C61D	1D4900	19DE5E	065093	06BADE	1B1C5E	0B9AD2	
87	87	08	1	045414	14C61D	1D4900	19DE5E	065093	06BADE	0F3667	0B9AD2	
88	88	08	4	045414	14C61D	1D4900	19DE5E	0640EA	06BADE	0F3667	0B9AD2	
89	89	08	3	045414	0CC96D	1D4900	19DE5E	0640EA	06BADE	0F3667	0B9AD2	
90	90	09	3	045414	0CC96D	1D4900	15BAE5	1240EA	06BADE	0F3667	0B9AD2	
91	91	09	1	045414	0CC96D	1D4900	099A2C	1240EA	06BADE	0F3667	0B9AD2	
92	92	09	2	045414	0CC96D	1D4900	099A2C	1240EA	06BADE	0F3667	0B9AD2	
93	93	09	4	045414	0CC40F	1D4900	099A2C	1240EA	06BADE	0F3667	0B9AD2	
94	94	09	4	045414	0CC40F	012A09	099A2C	1240EA	06BADE	0F3667	0B9AD2	
95	95	09	1	045414	0CC40F	012A09	099A2C	064055	06BADE	0F3667	0B9AD2	
96	96	09	0	045414	0CC40F	012A09	099A2C	0E6895	06BADE	0F3667	0B9AD2	
97	97	09	4	045414	0CC097	012A09	099A2C	0E6895	06BADE	0F3667	0B9AD2	
98	98	09	1	0C6D1E	0CC097	012A09	099A2C	0E6895	06BADE	0F3667	0B9AD2	
99	99	09	3	0C6D1E	0CC097	012A09	099A2C	124055	06BADE	0F3667	0B9AD2	
100	100	0A	3	0C6D1E	14C85D	012A09	1DC05D	124055	06BADE	0F3667	0B9AD2	
101	101	0A	6	0C6D1E	14C85D	012A09	1DC05D	124055	06BADE	0F3667	0B9AD2	
102	102	0A	6	0C6D1E	14C85D	012A09	1DC05D	124055	06BADE	0F3667	0B9AD2	
103	103	0A	5	0C6D1E	14C85D	012A09	1DC05D	124055	06BADE	1B3409	0B9AD2	
104	104	0A	4	0C6D1E	14C85D	012A09	1DC05D	124055	06BADE	07650F	0B9AD2	
105	105	0A	4	0C6D1E	14C85D	012A09	1DC05D	124055	0AE002	07650F	0B9AD2	
106	106	0A	5	0C6D1E	14C85D	012A09	1DC05D	0A7384	0AE002	07650F	0B9AD2	
107	107	0A	4	0C6D1E	14C85D	012A09	1DC05D	162304	0AE002	07650F	0B9AD2	
108	108	0A	4	0C6D1E	14C85D	012A09	1DC05D	162304	02FC02	07650F	0B9AD2	
109	109	0A	5	0C6D1E	14C85D	012A09	1DC05D	0A73D4	02FC02	07650F	0B9AD2	
110	110	0B	6	0C6D1E	14C85D	012A09	1DC05D	126450	02FDDF	07650F	0B9AD2	
111	111	0B	7	0C6D1E	14C85D	012A09	1DC05D	126450	02FDDF	1B3A17	0B9AD2	
112	112	0B	5	0C6D1E	14C85D	012A09	1DC05D	126450	02FDDF	1B3A17	0B9AD2	
113	113	0B	0	0C6D1E	14C85D	012A09	1DC05D	126450	02FDDF	1B3A17	07AA84	
114	114	0B	5	0C6D1E	14C85D	012A09	1DC05D	126450	0ADF85	1B3A17	07AA84	
115	115	0B	1	103E82	14C85D	012A09	1DC05D	126450	0ADF85	1B3A17	07AA84	
116	116	0B	4	103E82	14C85D	012A09	1DC05D	126450	029E0C	1B3A17	07AA84	
117	117	0B	1	103E82	08940C	012A09	1DC05D	126450	029E0C	1B3A17	07AA84	
118	118	0B	1	103E82	08940C	012A09	1DC05D	16230A	029E0C	1B3A17	07AA84	
119	119	0B	5	103E82	14C48D	012A09	1DC05D	16230A	029E0C	1B3A17	07AA84	
120	120	0C	2	103E82	1CB080	012A09	1DC05D	16230A	1EE50B	1B3A17	07AA84	
121	121	0C	0	103E82	1CB080	05601E	1DC05D	16230A	1EE50B	1B3A17	07AA84	
122	122	0C	5	103E82	1CB080	05601E	1DC05D	16230A	1EE50B	1B3A17	07AA84	
123	123	0C	4	000C00	1CB080	05601E	1DC05D	16230A	1EE50B	1B3A17	07AA84	
124	124	0C	5	000C00	1CB080	05601E	1DC05D	16230A	06E002	1B3A17	07AA84	
125	125	0C	4	000C00	1CB080	05601E	1DC05D	067384	06E002	1B3A17	07AA84	
126	126	0C	2	000C00	1CB080	05601E	1DC05D	067384	0AE002	1B3A17	07AA84	
127	127	0C	3	000C00	1CB080	05601E	1DC05D	0A7384	0AE002	1B3A17	07AA84	
128	128	0C	0	000C00	1CB080	0D1C05	1DC05D	0A7384	0AE002	1B3A17	07AA84	
129	129	0C	4	000C00	1CB080	0D1C05	0DDE8D	0A7384	0AE002	1B3A17	07AA84	
130	130	0D	4	140A03	1CB080	0D1C05	0DDE8D	0673D4	0AE002	1B3A17	07AA84	
131	131	0D	5	140A03	1CB080	0D1C05	0DDE8D	0A73D4	0AE002	1B3A17	07AA84	
132	132	0D	5	140A03	1CB080	0D1C05	0DDE8D	0A73D4	0AE002	1B3A17	07AA84	
133	133	0D	3	140A03	1CB080	0D1C05	0DDE8D	0A73D4	06DF85	1B3A17	07AA84	
134	134	0D	1	140A03	1CB080	0D1C05	0DDE8D	0A73D4	0ADF85	1B3A17	07AA84	
135	135	0D	6	140A03	1CB080	0D1C05	0DCE06	0A73D4	0ADF85	1B3A17	07AA84	
136	136	0D	6	140A03	10E60A	0D1C05	0DCE06	0A73D4	0ADF85	1B3A17	07AA84	
137	137	0D	1	140A03	10E60A	0D1C05	0DCE06	0A73D4	0ADF85	1B3082	07AA84	
138	138	0D	1	140A03	10E60A	0D1C05	0DCE06	0A73D4	0ADF85	1F3082	07AA84	
139	139	0D	1	140A03	04940C	0D1C05	0DCE06	0A73D4	0ADF85	1F3082	07AA84	
140	140	0E	1	140A03	0CCF83	0D1C05	0DCE06	0A73D4	0ADF85	1F3082	07AA84	
141	141	0E	6	140A03	10FE04	0D1C05	0DCE06	0A73D4	0ADF85	1F3082	07AA84	
142	142	0E	1	140A03	10FE04	0D1C05	0DCE06	0A73D4	0ADF85	1F3082	07AA84	
143	143	0E	4	140A03	10FE04	0D1C05	0DCE06	0A73D4	0ADF85	03688D	07AA84	
144	144	0E	0	140A03	04C48D	0D1C05	0DCE06	0A73D4	0ADF85	03688D	07AA84	
145	145	0E	2	140A03	04C48D	0D1C05	0DCE06	166403	0ADF85	03688D	07AA84	
146	146	0E	7	141B07	04C48D	0D1C05	0DCE06	166403	0ADF85	03688D	07AA84	
147	147	0E	6	141B07	04C48D	151C0F	0DCE06	166403	0ADF85	03688D	07AA84	
148	148	0E	4	141B07	04C48D	151C0F	0DCE06	166403	0ADF85	03688D	1BFB80	
149	149	0E	7	141B07	04C48D	151C0F	0DCE06	166403	0ADF85	1F688D	1BFB80	
150	150	0F	1	141B07	04C48D	151C0F	0DCE06	164A15	0ADF85	1F688D	0BAB14	
151	151	0F	1	141B07	188CD7	151C0F	0DCE06	164A15	0ADF85	1F688D	0BAB14	
152	152	0F	1	141B07	188CD7	151C0F	0DCE06	164A15	0ADF85	1F688D	0BAB14	
153	153	0F	6	141B07	04C40F	151C0F	0DCE06	164A15	0ADF85	1F688D	0BAB14	
154	154	0F	3	141B07	08CA0B	151C0F	0DCE06	164A15	0ADF85	1F688D	0BAB14	
155	155	0F	7	141B07	08CA0B	151C0F	0DCE06	164A15	0ADF85	133082	0BAB14	
156	156	0F	7	141B07	08CA0B	151C0F	15D204	164A15	0ADF85	133082	0BAB14	
157	157	0F	7	141B07	08CA0B	151C0F	15D204	164A15	0ADF85	133082	178187	
158	158	0F	3	141B07	08CA0B	151C0F	15D204	164A15	0ADF85	133082	0BF989	
159	159	0F	7	141B07	08CA0B	151C0F	15D204	164A15	0ADF85	133082	178187	
160	160	10	1	141B07	08CA0B	151C0F	01F91B	164A15	0ADF85	133082	0BAD53	
161	161	10	1	141B07	08FAD7	151C0F	01F91B	164A15	0ADF85	133082	0BAD53	
162	162	10	1	141B07	08FAD7	151C0F	01F91B	164A15	0ADF85	133082	0BAD53	
163	163	10	1	141B07	04C48D	151C0F	01F91B	164A15	0ADF85	133082	0BAD53	
164	164	10	0	141B07	08C48D	151C0F	01F91B	164A15	0ADF85	133082	0BAD53	
165	165	10	7	141B07	108608	151C0F	01F91B	164A15	0ADF85	133082	0BAD53	
166	166	10	1	1C0C00	108608	151C0F	01F91B	164A15	0ADF85	133082	0BAD53	
167	167	10	1	1C0C00	108608	151C0F	01F91B	164A15	0ADF85	133082	13AB56	
168	168	10	6	1C0C00	108658	151C0F	01F91B	164A15	0ADF85	133082	13AB56	
169	169	10	6	1C0C00	08C96D	151C0F	01F91B	164A15	0ADF85	133082	13AB56	
170	170	11	1	1C0C00	08C96D	151C0F	01F91B	164A15	0ADF85	073667	13AB56	
171	171	11	1	1C0C00	04C96D	151C0F	01F91B	164A15	0ADF85	073667	13AB56	
172	172	11	1	1C0C00	04C96D	151C0F	01F91B	164A15	0ADF85	073667	13AB56	
173	173	11	6	1C0C00	04C40F	151C0F	01F91B	164A15	0ADF85	073667	13AB56	
174	174	11	0	1C0C00	08C40F	151C0F	01F91B	164A15	0ADF85	073667	13AB56	
175	175	11	0	1C0C00	08C40F	151C0F	01F91B	164A15	0ADF85	171A80	13AB56	
176	176	11	4	106D04	08C40F	151C0F	01F91B	164A15	0ADF85	171A80	13AB56	
177	177	11	1	046D1E	08C40F	151C0F	01F91B	164A15	0ADF85	171A80	13AB56	
178	178	11	0	046D1E	08C40F	151C0F	01F91B	0A6895	0ADF85	171A80	13AB56	
179	179	11	1	046D1E	08C097	151C0F	01F91B	0A6895	0ADF85	171A80	13AB56	
180	180	12	4	086D1E	04C097	151C0F	01F91B	0A6895	0ADF85	171A80	13AB56	
181	181	12	4	086D1E	04C097	151C0F	01F91B	066895	0ADF85	171A80	13AB56	
182	182	12	3	086D1E	04C097	151C0F	01F91B	066895	0ADF85	171A80	13AB56	
183	183	12	2	086D1E	04C097	151C0F	01F91B	12558C	0ADF85	171A80	13AB56	
184	184	12	0	086D1E	04C097	151C0F	09C18E	12558C	0ADF85	171A80	13AB56	
185	185	12	7	086D1E	04C097	0D4900	09C18E	12558C	0ADF85	171A80	13AB56	
186	186	12	3	107507	04C097	0D4900	09C18E	12558C	0ADF85	171A80	13AB56	
187	187	12	3	107507	04C097	0D4900	09C18E	12558C	0ADF85	171A80	138587	
188	188	12	3	107507	04C097	0D4900	018584	12558C	0ADF85	171A80	138587	
189	189	12	5	107507	04C097	0D4900	09C1DE	12558C	0ADF85	171A80	138587	
190	190	13	6	107507	04C097	0D4900	01E85B	12558C	12C711	171A80	138587	
191	191	13	3	107507	04C097	0D4900	01E85B	12558C	12C711	0B2A92	138587	
192	192	13	3	107507	04C097	0D4900	01E85B	12558C	12C711	0B2A92	138587	
193	193	13	1	107507	04C097	0D4900	05F50C	12558C	12C711	0B2A92	138587	
194	194	13	5	107507	04C097	0D4900	05F50C	12558C	12C711	0B2A92	138587	
195	195	13	4	107507	089A80	0D4900	05F50C	12558C	12C711	0B2A92	138587	
196	196	13	4	107507	089A80	0D4900	05F50C	12558C	1A8181	0B2A92	138587	
197	197	13	2	107507	089A80	0D4900	05F50C	02068F	1A8181	0B2A92	138587	
198	198	13	2	107507	089A80	0D4900	05F50C	02130F	1A8181	0B2A92	138587	
199	199	13	5	107507	089A80	052508	05F50C	02130F	1A8181	0B2A92	138587	
200	200	14	4	107507	089A80	052508	05F50C	02130F	02AA82	0B2A92	138587	
201	201	14	4	107507	089A80	052508	05F50C	022614	02AA82	0B2A92	138587	
202	202	14	6	107507	089A80	052508	05F50C	022614	02AA82	0B2A92	138587	
203	203	14	6	107507	089A80	052508	05F50C	0A7086	02AA82	0B2A92	138587	
204	204	14	7	107507	089A80	052508	05F50C	0A7086	02AA82	0B0B87	138587	
205	205	14	1	107507	089A80	052508	05F50C	0A7086	02AA82	031206	138587	
206	206	14	0	107507	089A80	052508	05F50C	0A7086	02AA82	031206	03DF0A	
207	207	14	6	107507	08FA00	052508	05F50C	0A7086	02AA82	031206	03DF0A	
208	208	14	6	085282	08FA00	052508	05F50C	0A7086	02AA82	031206	03DF0A	
209	209	14	5	085282	08FA00	052508	05F50C	0A7086	02AA82	0B2A84	03DF0A	
210	210	15	6	085282	08FA00	052508	05F50C	0A7086	02F103	0B4485	03DF0A	
211	211	15	5	085282	08FA00	052508	05F50C	0A7086	02F103	0B6208	03DF0A	
212	212	15	3	085282	08FA00	052508	05F50C	0A7086	02F103	0B6208	03DF0A	
213	213	15	7	085282	08FA00	052508	05F50C	0A7086	0AE386	0B6208	03DF0A	
214	214	15	3	085282	08FA00	052508	0DD204	0A7086	0AE386	0B6208	03DF0A	
215	215	15	5	085282	08FA00	052508	0DD204	0A7086	0AE386	0B6208	0F8187	
216	216	15	7	085282	08FA00	052508	11D68A	0A7086	0AE386	0B6208	0F8187	
217	217	15	7	085282	08FA00	052508	11D68A	0A7086	16A787	0B6208	0F8187	
218	218	15	7	085282	08FA00	052508	11D68A	0A7086	16A787	0B6208	17EB8D	
219	219	15	3	085282	08FA00	052508	11D68A	0A7086	16A787	0B6208	0B9B89	
220	220	16	4	085282	08FA00	052508	11D603	0A7086	16A787	0B6208	0F8187	
221	221	16	3	085282	08FA00	052508	11D603	163807	16A787	0B6208	0F8187	
222	222	16	4	085282	08FA00	052508	11D603	163807	16A787	0B6208	0F8187	
223	223	16	0	085282	08FA00	052508	09C18E	163807	16A787	0B6208	0F8187	
224	224	16	2	085282	08FA00	052508	09C18E	0E6403	16A787	0B6208	0F8187	
225	225	16	6	0C1B07	08FA00	052508	09C18E	0E6403	16A787	0B6208	0F8187	
226	226	16	3	0C1B07	08FA00	0D1C0F	09C18E	0E6403	16A787	0B6208	0F8187	
227	227	16	4	0C1B07	08FA00	0D1C0F	09C18E	0E6403	16A787	0B2A92	0F8187	
228	228	16	1	0C1B07	08FA00	0D1C0F	09C1DE	0E6403	16A787	0B2A92	0F8187	
229	229	16	3	0C1B07	08FA00	0D1C0F	09C1DE	0E4A15	16A787	0B2A92	0F8187	
230	230	17	4	0C1B07	10B018	0D1C0F	019FE2	0E4A15	16A787	0B2A92	0F8187	
231	231	17	6	0C1B07	10B018	0D1C0F	019FE2	0631EC	16A787	0B2A92	0F8187	
232	232	17	3	0C1B07	10B018	0D1C0F	019FE2	0631EC	16A787	0B2A92	0F8187	
233	233	17	1	0C1B07	10B018	0D1C0F	019FE2	0631EC	16A787	033082	0F8187	
234	234	17	3	0C1B07	10B018	0D1C0F	05D68A	0631EC	16A787	033082	0F8187	
235	235	17	7	0C1B07	089A80	0D1C0F	05D68A	0631EC	16A787	033082	0F8187	
236	236	17	5	0C1B07	089A80	0D1C0F	0DD204	0631EC	16A787	033082	0F8187	
237	237	17	7	0C1B07	089A80	0D1C0F	0DD204	0631EC	16A787	033082	0F8187	
238	238	17	3	0C1B07	089A80	0D1C0F	0DD204	0631EC	12A787	033082	0F8187	
239	239	17	7	0C1B07	089A80	0D1C0F	0DD204	0631EC	12A787	033082	13EB8D	
240	240	00	4	0C1B07	089A80	0D1C0F	19D68A	0631EC	12A787	033082	0F8187	
241	241	00	3	0C1B07	089A80	0D1C0F	19D68A	123807	12A787	033082	0F8187	
242	242	00	3	0C1B07	089A80	0D1C0F	19D68A	123807	12A787	033082	0F8187	
243	243	00	2	0C1B07	089A80	0D1C0F	0D8584	123807	12A787	033082	0F8187	
244	244	00	1	0C1B07	089A80	0D1C0F	0DE85B	123807	12A787	033082	0F8187	
245	245	00	4	0C1B07	089A80	117D57	0DE85B	123807	12A787	033082	0F8187	
246	246	00	4	0C1B07	188E5F	117D57	0DE85B	123807	12A787	033082	0F8187	
247	247	00	2	0C1B07	188E5F	117D57	0DE85B	1E6450	12A787	033082	0F8187	
248	248	00	2	0C1B07	188E5F	117D57	0DE85B	121860	12A787	033082	0F8187	
249	249	00	0	0C1B07	188E5F	1963E7	0DE85B	121860	12A787	033082	0F8187	
250	250	01	6	044167	188E5F	1932EE	0DE85B	121860	12A787	033082	0F8187	
251	251	01	4	044167	188E5F	1932EE	0DE85B	121860	12A787	0F646F	0F8187	
252	252	01	0	044167	188E5F	1932EE	0DE85B	121860	12A787	0F646F	0F8187	
253	253	01	3	044167	188E5F	1932EE	0DE85B	024F00	12A787	0F646F	0F8187	
254	254	01	0	043F89	188E5F	1932EE	0DE85B	024F00	12A787	0F646F	0F8187	
255	255	01	0	043F89	188E5F	1932EE	15DC8B	024F00	12A787	0F646F	0F8187	
256	256	01	5	186E05	188E5F	1932EE	15DC8B	024F00	12A787	0F646F	0F8187	
257	257	01	4	1C3E82	188E5F	1932EE	15DC8B	024F00	12A787	0F646F	0F8187	
258	258	01	4	1C3E82	188E5F	1932EE	15DC8B	024F00	0EAA82	0F646F	0F8187	
259	259	01	7	1C3E82	188E5F	1932EE	15DC8B	0E068F	0EAA82	0F646F	0F8187	
260	260	02	1	1C3E82	188E5F	1932EE	15DC8B	0E130F	0EAA82	0F646F	17A30D	
261	261	02	4	1C3E82	04C784	1932EE	15DC8B	0E130F	0EAA82	0F646F	17A30D	
262	262	02	5	1C3E82	04C784	1932EE	15DC8B	0E130F	0EAA82	0F646F	17A30D	
263	263	02	7	1C3E82	04C784	1932EE	15DC8B	162304	0EAA82	0F646F	17A30D	
264	264	02	2	1C3E82	04C784	1932EE	15DC8B	162304	1EB007	0F646F	17A30D	
265	265	02	2	1C3E82	04C784	1932EE	15DC8B	162304	1EB007	0F646F	03AB14	
266	266	02	7	1C3E82	04C784	1D091E	15DC8B	162304	1EB007	0F646F	03AB14	
267	267	02	7	1C3E82	04C784	0D2F2F	15DC8B	162304	1EB007	0F646F	03AB14	
268	268	02	6	1C3E82	04C784	0D2F2F	15DC8B	162304	1EB007	0F646F	13CD25	
269	269	02	6	1C3E82	04C784	0D2F2F	15DC8B	162304	1EB007	0F646F	139B65	
270	270	03	1	1C3E82	04C784	0D2F2F	15DC8B	162304	1EB007	173BEB	139B65	
271	271	03	1	1C3E82	00DEE5	0D2F2F	15DC8B	162304	1EB007	173BEB	139B65	
272	272	03	2	1C3E82	00DEE5	0D2F2F	15DC8B	162304	1EB007	173BEB	139B65	
273	273	03	5	1C3E82	00CA0B	0D2F2F	15DC8B	162304	1EB007	173BEB	139B65	
274	274	03	7	1C3E82	00CA0B	094F88	15DC8B	162304	1EB007	173BEB	139B65	
275	275	03	4	1C3E82	00CA0B	094F88	15DC8B	162304	1EDC08	173BEB	139B65	
276	276	03	1	1C3E82	00CA0B	094F88	15DC8B	162304	1EDC08	173BEB	03F989	
277	277	03	6	1C3E82	00CA0B	094F88	15DC8B	16230A	1EDC08	173BEB	03F989	
278	278	03	1	1C3E82	14C48D	094F88	15DC8B	16230A	1EDC08	173BEB	03F989	
279	279	03	3	1C3E82	14C48D	094F88	15DC8B	16230A	1EDC08	1B4284	03F989	
280	280	04	7	1C3E82	1C8188	094F88	1DD50D	16230A	1EDC08	1B4284	03F989	
281	281	04	4	1C3E82	1C8188	094F88	1DD50D	16230A	1EDC08	1B4284	03AD53	
282	282	04	0	1C3E82	1C8188	094F88	1DD50D	16230A	1EDC08	1B4284	03AD53	
283	283	04	2	1C3E82	1C8188	094F88	1DD50D	066403	1EDC08	1B4284	03AD53	
284	284	04	4	041B07	1C8188	094F88	1DD50D	066403	1EDC08	1B4284	03AD53	
285	285	04	4	041B07	1C8188	051C0F	1DD50D	066403	1EDC08	1B4284	03AD53	
286	286	04	2	041B07	1C8188	051C0F	1DD50D	1A4002	1EDC08	1B4284	03AD53	
