Sample in Buffer	Sample in Window	addra_0	chipID	douta_0m	douta_1m	douta_2m	douta_3m	douta_4m	douta_5m	douta_6m	douta_7m
0	0	14	4	107507	089A80	052508	05F50C	02130F	02AA82	0B2A92	138587	
1	1	14	4	107507	089A80	052508	05F50C	022614	02AA82	0B2A92	138587	
2	2	14	6	107507	089A80	052508	05F50C	022614	02AA82	0B2A92	138587	
3	3	14	6	107507	089A80	052508	05F50C	0A7086	02AA82	0B2A92	138587	
4	4	14	7	107507	089A80	052508	05F50C	0A7086	02AA82	0B0B87	138587	
5	5	14	1	107507	089A80	052508	05F50C	0A7086	02AA82	031206	138587	
6	6	14	0	107507	089A80	052508	05F50C	0A7086	02AA82	031206	03DF0A	
7	7	14	6	107507	08FA00	052508	05F50C	0A7086	02AA82	031206	03DF0A	
8	8	14	6	085282	08FA00	052508	05F50C	0A7086	02AA82	031206	03DF0A	
9	9	14	5	085282	08FA00	052508	05F50C	0A7086	02AA82	0B2A84	03DF0A	
10	10	14	6	085282	08FA00	052508	05F50C	0A7086	02AA82	0B4485	03DF0A	
11	11	14	6	085282	08FA00	052508	05F50C	0A7086	02F103	0B4485	03DF0A	
12	12	15	5	085282	08FA00	052508	05F50C	0A7086	02F103	0B6208	03DF0A	
13	13	15	3	085282	08FA00	052508	05F50C	0A7086	02F103	0B6208	03DF0A	
14	14	15	7	085282	08FA00	052508	05F50C	0A7086	0AE386	0B6208	03DF0A	
15	15	15	3	085282	08FA00	052508	0DD204	0A7086	0AE386	0B6208	03DF0A	
16	16	15	5	085282	08FA00	052508	0DD204	0A7086	0AE386	0B6208	0F8187	
17	17	15	7	085282	08FA00	052508	11D68A	0A7086	0AE386	0B6208	0F8187	
18	18	15	7	085282	08FA00	052508	11D68A	0A7086	16A787	0B6208	0F8187	
19	19	15	7	085282	08FA00	052508	11D68A	0A7086	16A787	0B6208	17EB8D	
20	20	15	3	085282	08FA00	052508	11D68A	0A7086	16A787	0B6208	0B9B89	
21	21	15	4	085282	08FA00	052508	11D68A	0A7086	16A787	0B6208	0F8187	
22	22	15	4	085282	08FA00	052508	11D603	0A7086	16A787	0B6208	0F8187	
23	23	16	3	085282	08FA00	052508	11D603	163807	16A787	0B6208	0F8187	
24	24	16	4	085282	08FA00	052508	11D603	163807	16A787	0B6208	0F8187	
25	25	16	0	085282	08FA00	052508	09C18E	163807	16A787	0B6208	0F8187	
26	26	16	2	085282	08FA00	052508	09C18E	0E6403	16A787	0B6208	0F8187	
27	27	16	6	0C1B07	08FA00	052508	09C18E	0E6403	16A787	0B6208	0F8187	
28	28	16	3	0C1B07	08FA00	0D1C0F	09C18E	0E6403	16A787	0B6208	0F8187	
29	29	16	4	0C1B07	08FA00	0D1C0F	09C18E	0E6403	16A787	0B2A92	0F8187	
30	30	16	1	0C1B07	08FA00	0D1C0F	09C1DE	0E6403	16A787	0B2A92	0F8187	
31	31	16	3	0C1B07	08FA00	0D1C0F	09C1DE	0E4A15	16A787	0B2A92	0F8187	
32	32	16	4	0C1B07	10B018	0D1C0F	09C1DE	0E4A15	16A787	0B2A92	0F8187	
33	33	16	4	0C1B07	10B018	0D1C0F	019FE2	0E4A15	16A787	0B2A92	0F8187	
34	34	17	6	0C1B07	10B018	0D1C0F	019FE2	0631EC	16A787	0B2A92	0F8187	
35	35	17	3	0C1B07	10B018	0D1C0F	019FE2	0631EC	16A787	0B2A92	0F8187	
36	36	17	1	0C1B07	10B018	0D1C0F	019FE2	0631EC	16A787	033082	0F8187	
37	37	17	3	0C1B07	10B018	0D1C0F	05D68A	0631EC	16A787	033082	0F8187	
38	38	17	7	0C1B07	089A80	0D1C0F	05D68A	0631EC	16A787	033082	0F8187	
39	39	17	5	0C1B07	089A80	0D1C0F	0DD204	0631EC	16A787	033082	0F8187	
40	40	17	7	0C1B07	089A80	0D1C0F	0DD204	0631EC	16A787	033082	0F8187	
41	41	17	3	0C1B07	089A80	0D1C0F	0DD204	0631EC	12A787	033082	0F8187	
42	42	17	7	0C1B07	089A80	0D1C0F	0DD204	0631EC	12A787	033082	13EB8D	
43	43	17	4	0C1B07	089A80	0D1C0F	19D68A	0631EC	12A787	033082	13EB8D	
44	44	17	4	0C1B07	089A80	0D1C0F	19D68A	0631EC	12A787	033082	0F8187	
45	45	00	3	0C1B07	089A80	0D1C0F	19D68A	123807	12A787	033082	0F8187	
46	46	00	3	0C1B07	089A80	0D1C0F	19D68A	123807	12A787	033082	0F8187	
47	47	00	2	0C1B07	089A80	0D1C0F	0D8584	123807	12A787	033082	0F8187	
48	48	00	1	0C1B07	089A80	0D1C0F	0DE85B	123807	12A787	033082	0F8187	
49	49	00	4	0C1B07	089A80	117D57	0DE85B	123807	12A787	033082	0F8187	
50	50	00	4	0C1B07	188E5F	117D57	0DE85B	123807	12A787	033082	0F8187	
51	51	00	2	0C1B07	188E5F	117D57	0DE85B	1E6450	12A787	033082	0F8187	
52	52	00	2	0C1B07	188E5F	117D57	0DE85B	121860	12A787	033082	0F8187	
53	53	00	0	0C1B07	188E5F	1963E7	0DE85B	121860	12A787	033082	0F8187	
54	54	00	6	0C1B07	188E5F	1932EE	0DE85B	121860	12A787	033082	0F8187	
55	55	00	6	044167	188E5F	1932EE	0DE85B	121860	12A787	033082	0F8187	
56	56	01	4	044167	188E5F	1932EE	0DE85B	121860	12A787	0F646F	0F8187	
57	57	01	0	044167	188E5F	1932EE	0DE85B	121860	12A787	0F646F	0F8187	
58	58	01	3	044167	188E5F	1932EE	0DE85B	024F00	12A787	0F646F	0F8187	
59	59	01	0	043F89	188E5F	1932EE	0DE85B	024F00	12A787	0F646F	0F8187	
60	60	01	0	043F89	188E5F	1932EE	15DC8B	024F00	12A787	0F646F	0F8187	
61	61	01	5	186E05	188E5F	1932EE	15DC8B	024F00	12A787	0F646F	0F8187	
62	62	01	4	1C3E82	188E5F	1932EE	15DC8B	024F00	12A787	0F646F	0F8187	
63	63	01	4	1C3E82	188E5F	1932EE	15DC8B	024F00	0EAA82	0F646F	0F8187	
64	64	01	7	1C3E82	188E5F	1932EE	15DC8B	0E068F	0EAA82	0F646F	0F8187	
65	65	01	1	1C3E82	188E5F	1932EE	15DC8B	0E130F	0EAA82	0F646F	0F8187	
66	66	01	1	1C3E82	188E5F	1932EE	15DC8B	0E130F	0EAA82	0F646F	17A30D	
67	67	02	4	1C3E82	04C784	1932EE	15DC8B	0E130F	0EAA82	0F646F	17A30D	
68	68	02	5	1C3E82	04C784	1932EE	15DC8B	0E130F	0EAA82	0F646F	17A30D	
69	69	02	7	1C3E82	04C784	1932EE	15DC8B	162304	0EAA82	0F646F	17A30D	
70	70	02	2	1C3E82	04C784	1932EE	15DC8B	162304	1EB007	0F646F	17A30D	
71	71	02	2	1C3E82	04C784	1932EE	15DC8B	162304	1EB007	0F646F	03AB14	
72	72	02	7	1C3E82	04C784	1D091E	15DC8B	162304	1EB007	0F646F	03AB14	
73	73	02	7	1C3E82	04C784	0D2F2F	15DC8B	162304	1EB007	0F646F	03AB14	
74	74	02	6	1C3E82	04C784	0D2F2F	15DC8B	162304	1EB007	0F646F	13CD25	
75	75	02	6	1C3E82	04C784	0D2F2F	15DC8B	162304	1EB007	0F646F	139B65	
76	76	02	1	1C3E82	04C784	0D2F2F	15DC8B	162304	1EB007	035865	139B65	
77	77	02	1	1C3E82	04C784	0D2F2F	15DC8B	162304	1EB007	173BEB	139B65	
78	78	03	1	1C3E82	00DEE5	0D2F2F	15DC8B	162304	1EB007	173BEB	139B65	
79	79	03	2	1C3E82	00DEE5	0D2F2F	15DC8B	162304	1EB007	173BEB	139B65	
80	80	03	5	1C3E82	00CA0B	0D2F2F	15DC8B	162304	1EB007	173BEB	139B65	
81	81	03	7	1C3E82	00CA0B	094F88	15DC8B	162304	1EB007	173BEB	139B65	
82	82	03	4	1C3E82	00CA0B	094F88	15DC8B	162304	1EDC08	173BEB	139B65	
83	83	03	1	1C3E82	00CA0B	094F88	15DC8B	162304	1EDC08	173BEB	03F989	
84	84	03	6	1C3E82	00CA0B	094F88	15DC8B	16230A	1EDC08	173BEB	03F989	
85	85	03	1	1C3E82	14C48D	094F88	15DC8B	16230A	1EDC08	173BEB	03F989	
86	86	03	3	1C3E82	14C48D	094F88	15DC8B	16230A	1EDC08	1B4284	03F989	
87	87	03	7	1C3E82	1C8188	094F88	15DC8B	16230A	1EDC08	1B4284	03F989	
88	88	03	7	1C3E82	1C8188	094F88	1DD50D	16230A	1EDC08	1B4284	03F989	
89	89	04	4	1C3E82	1C8188	094F88	1DD50D	16230A	1EDC08	1B4284	03AD53	
90	90	04	0	1C3E82	1C8188	094F88	1DD50D	16230A	1EDC08	1B4284	03AD53	
91	91	04	2	1C3E82	1C8188	094F88	1DD50D	066403	1EDC08	1B4284	03AD53	
92	92	04	4	041B07	1C8188	094F88	1DD50D	066403	1EDC08	1B4284	03AD53	
93	93	04	4	041B07	1C8188	051C0F	1DD50D	066403	1EDC08	1B4284	03AD53	
94	94	04	2	041B07	1C8188	051C0F	1DD50D	1A4002	1EDC08	1B4284	03AD53	
95	95	04	1	041B07	1C8188	051C0F	1DD50D	064A15	1EDC08	1B4284	03AD53	
96	96	04	2	041B07	1C8188	097D57	1DD50D	064A15	1EDC08	1B4284	03AD53	
97	97	04	2	041B07	0C8E5F	097D57	1DD50D	064A15	1EDC08	1B4284	03AD53	
98	98	04	4	041B07	0C8E5F	0D63E7	1DD50D	064A15	1EDC08	1B4284	03AD53	
99	99	04	4	041B07	0C8E5F	0D32EE	1DD50D	064A15	1EDC08	1B4284	03AD53	
100	100	05	3	041B07	0C8E5F	0D32EE	1DD50D	0A1860	1EDC08	1B4284	03AD53	
101	101	05	7	041B07	0C8E5F	0D32EE	1DD50D	0A1860	1EDC08	1B4284	03AD53	
102	102	05	0	041B07	0C8E5F	0D32EE	05D204	0A1860	1EDC08	1B4284	03AD53	
103	103	05	1	041B07	0C8E5F	0D32EE	05D204	0A1860	1EDC08	1B4284	078187	
104	104	05	7	0C6E05	0C8E5F	0D32EE	05D204	0A1860	1EDC08	1B4284	078187	
105	105	05	5	0C6E05	00B080	0D32EE	05D204	0A1860	1EDC08	1B4284	078187	
106	106	05	0	0C6E05	00B080	0D32EE	05D204	0A1860	1EDC08	1B4284	078187	
107	107	05	2	0C6E05	00B080	0D32EE	05D204	0A1860	02E50B	1B4284	078187	
108	108	05	2	045414	00B080	0D32EE	05D204	0A1860	02E50B	1B4284	078187	
109	109	05	6	045414	00B080	05471C	05D204	0A1860	02E50B	1B4284	078187	
110	110	05	6	045414	00B080	0D4B91	05D204	0A1860	02E50B	1B4284	078187	
111	111	06	6	045414	00B080	0D4B91	05D204	0A1860	02E50B	0F3E51	078187	
112	112	06	7	045414	00B080	0D4B91	05D204	0A1860	02E50B	0F3E51	078187	
113	113	06	4	045414	00B080	0D4B91	05D204	0A1860	02E50B	070A86	078187	
114	114	06	3	045414	00B080	0D4B91	05D204	0A1860	02E50B	070A86	0B9AD2	
115	115	06	6	045414	00B080	0D4B91	05D204	065023	02E50B	070A86	0B9AD2	
116	116	06	1	045414	00B080	0D4B91	019FE2	065023	02E50B	070A86	0B9AD2	
117	117	06	5	045414	00B080	0D4B91	019FE2	065023	02E50B	0376A6	0B9AD2	
118	118	06	3	045414	10C6EA	0D4B91	019FE2	065023	02E50B	0376A6	0B9AD2	
119	119	06	6	045414	10C6EA	0D4B91	019FE2	065023	169D6E	0376A6	0B9AD2	
120	120	06	4	045414	10C6EA	0D4B91	1D9FE2	065023	169D6E	0376A6	0B9AD2	
121	121	06	4	045414	10C6EA	0D4B91	1D9FE2	065023	169D6E	1F76A6	0B9AD2	
122	122	07	6	045414	10C6EA	0D4B91	1D9FE2	02413C	169D6E	1F76A6	0B9AD2	
123	123	07	6	045414	10C6EA	0D4B91	1D9FE2	02413C	169D6E	1F76A6	0B9AD2	
124	124	07	6	045414	10C6EA	0D4B91	1D9FE2	02413C	169D6E	033082	0B9AD2	
125	125	07	2	045414	10C6EA	0D4B91	1D9FE2	02413C	169D6E	0B6C06	0B9AD2	
126	126	07	5	045414	10C6EA	0D4B91	1D9FE2	02413C	169D6E	1F3082	0B9AD2	
127	127	07	5	045414	10C6EA	057780	1D9FE2	02413C	169D6E	1F3082	0B9AD2	
128	128	07	5	045414	10C6EA	057780	1D9FE2	02413C	129E0C	1F3082	0B9AD2	
129	129	07	4	045414	10C6EA	057780	1D9FE2	02413C	06A959	1F3082	0B9AD2	
130	130	07	2	045414	10C6EA	057780	1D9FE2	02413C	06BADE	1F3082	0B9AD2	
131	131	07	6	045414	10C6EA	057780	1D9FE2	065093	06BADE	1F3082	0B9AD2	
132	132	07	6	045414	10C6EA	116719	1D9FE2	065093	06BADE	1F3082	0B9AD2	
133	133	08	1	045414	10C6EA	116719	1D9FE2	065093	06BADE	1B1C5E	0B9AD2	
134	134	08	2	045414	10C6EA	116719	1D9FE2	065093	06BADE	1B1C5E	0B9AD2	
135	135	08	1	045414	0CC48D	116719	1D9FE2	065093	06BADE	1B1C5E	0B9AD2	
136	136	08	3	045414	0CC48D	1D4900	1D9FE2	065093	06BADE	1B1C5E	0B9AD2	
137	137	08	6	045414	14C61D	1D4900	1D9FE2	065093	06BADE	1B1C5E	0B9AD2	
138	138	08	4	045414	14C61D	1D4900	19DE5E	065093	06BADE	1B1C5E	0B9AD2	
139	139	08	1	045414	14C61D	1D4900	19DE5E	065093	06BADE	0F3667	0B9AD2	
140	140	08	4	045414	14C61D	1D4900	19DE5E	0640EA	06BADE	0F3667	0B9AD2	
141	141	08	3	045414	0CC96D	1D4900	19DE5E	0640EA	06BADE	0F3667	0B9AD2	
142	142	08	3	045414	0CC96D	1D4900	19DE5E	1240EA	06BADE	0F3667	0B9AD2	
143	143	08	3	045414	0CC96D	1D4900	15BAE5	1240EA	06BADE	0F3667	0B9AD2	
144	144	09	1	045414	0CC96D	1D4900	099A2C	1240EA	06BADE	0F3667	0B9AD2	
145	145	09	2	045414	0CC96D	1D4900	099A2C	1240EA	06BADE	0F3667	0B9AD2	
146	146	09	4	045414	0CC40F	1D4900	099A2C	1240EA	06BADE	0F3667	0B9AD2	
147	147	09	4	045414	0CC40F	012A09	099A2C	1240EA	06BADE	0F3667	0B9AD2	
148	148	09	1	045414	0CC40F	012A09	099A2C	064055	06BADE	0F3667	0B9AD2	
149	149	09	0	045414	0CC40F	012A09	099A2C	0E6895	06BADE	0F3667	0B9AD2	
150	150	09	4	045414	0CC097	012A09	099A2C	0E6895	06BADE	0F3667	0B9AD2	
151	151	09	1	0C6D1E	0CC097	012A09	099A2C	0E6895	06BADE	0F3667	0B9AD2	
152	152	09	3	0C6D1E	0CC097	012A09	099A2C	124055	06BADE	0F3667	0B9AD2	
153	153	09	3	0C6D1E	14C85D	012A09	099A2C	124055	06BADE	0F3667	0B9AD2	
154	154	09	3	0C6D1E	14C85D	012A09	1DC05D	124055	06BADE	0F3667	0B9AD2	
155	155	0A	6	0C6D1E	14C85D	012A09	1DC05D	124055	06BADE	0F3667	0B9AD2	
156	156	0A	6	0C6D1E	14C85D	012A09	1DC05D	124055	06BADE	0F3667	0B9AD2	
157	157	0A	5	0C6D1E	14C85D	012A09	1DC05D	124055	06BADE	1B3409	0B9AD2	
158	158	0A	4	0C6D1E	14C85D	012A09	1DC05D	124055	06BADE	07650F	0B9AD2	
159	159	0A	4	0C6D1E	14C85D	012A09	1DC05D	124055	0AE002	07650F	0B9AD2	
160	160	0A	5	0C6D1E	14C85D	012A09	1DC05D	0A7384	0AE002	07650F	0B9AD2	
161	161	0A	4	0C6D1E	14C85D	012A09	1DC05D	162304	0AE002	07650F	0B9AD2	
162	162	0A	4	0C6D1E	14C85D	012A09	1DC05D	162304	02FC02	07650F	0B9AD2	
163	163	0A	5	0C6D1E	14C85D	012A09	1DC05D	0A73D4	02FC02	07650F	0B9AD2	
164	164	0A	6	0C6D1E	14C85D	012A09	1DC05D	126450	02FC02	07650F	0B9AD2	
165	165	0A	6	0C6D1E	14C85D	012A09	1DC05D	126450	02FDDF	07650F	0B9AD2	
166	166	0B	7	0C6D1E	14C85D	012A09	1DC05D	126450	02FDDF	1B3A17	0B9AD2	
167	167	0B	5	0C6D1E	14C85D	012A09	1DC05D	126450	02FDDF	1B3A17	0B9AD2	
168	168	0B	0	0C6D1E	14C85D	012A09	1DC05D	126450	02FDDF	1B3A17	07AA84	
169	169	0B	5	0C6D1E	14C85D	012A09	1DC05D	126450	0ADF85	1B3A17	07AA84	
170	170	0B	1	103E82	14C85D	012A09	1DC05D	126450	0ADF85	1B3A17	07AA84	
171	171	0B	4	103E82	14C85D	012A09	1DC05D	126450	029E0C	1B3A17	07AA84	
172	172	0B	1	103E82	08940C	012A09	1DC05D	126450	029E0C	1B3A17	07AA84	
173	173	0B	1	103E82	08940C	012A09	1DC05D	16230A	029E0C	1B3A17	07AA84	
174	174	0B	5	103E82	14C48D	012A09	1DC05D	16230A	029E0C	1B3A17	07AA84	
175	175	0B	2	103E82	1CB080	012A09	1DC05D	16230A	029E0C	1B3A17	07AA84	
176	176	0B	2	103E82	1CB080	012A09	1DC05D	16230A	1EE50B	1B3A17	07AA84	
177	177	0C	0	103E82	1CB080	05601E	1DC05D	16230A	1EE50B	1B3A17	07AA84	
178	178	0C	5	103E82	1CB080	05601E	1DC05D	16230A	1EE50B	1B3A17	07AA84	
179	179	0C	4	000C00	1CB080	05601E	1DC05D	16230A	1EE50B	1B3A17	07AA84	
180	180	0C	5	000C00	1CB080	05601E	1DC05D	16230A	06E002	1B3A17	07AA84	
181	181	0C	4	000C00	1CB080	05601E	1DC05D	067384	06E002	1B3A17	07AA84	
182	182	0C	2	000C00	1CB080	05601E	1DC05D	067384	0AE002	1B3A17	07AA84	
183	183	0C	3	000C00	1CB080	05601E	1DC05D	0A7384	0AE002	1B3A17	07AA84	
184	184	0C	0	000C00	1CB080	0D1C05	1DC05D	0A7384	0AE002	1B3A17	07AA84	
185	185	0C	4	000C00	1CB080	0D1C05	0DDE8D	0A7384	0AE002	1B3A17	07AA84	
186	186	0C	4	140A03	1CB080	0D1C05	0DDE8D	0A7384	0AE002	1B3A17	07AA84	
187	187	0C	4	140A03	1CB080	0D1C05	0DDE8D	0673D4	0AE002	1B3A17	07AA84	
188	188	0D	5	140A03	1CB080	0D1C05	0DDE8D	0A73D4	0AE002	1B3A17	07AA84	
189	189	0D	5	140A03	1CB080	0D1C05	0DDE8D	0A73D4	0AE002	1B3A17	07AA84	
190	190	0D	3	140A03	1CB080	0D1C05	0DDE8D	0A73D4	06DF85	1B3A17	07AA84	
191	191	0D	1	140A03	1CB080	0D1C05	0DDE8D	0A73D4	0ADF85	1B3A17	07AA84	
192	192	0D	6	140A03	1CB080	0D1C05	0DCE06	0A73D4	0ADF85	1B3A17	07AA84	
193	193	0D	6	140A03	10E60A	0D1C05	0DCE06	0A73D4	0ADF85	1B3A17	07AA84	
194	194	0D	1	140A03	10E60A	0D1C05	0DCE06	0A73D4	0ADF85	1B3082	07AA84	
195	195	0D	1	140A03	10E60A	0D1C05	0DCE06	0A73D4	0ADF85	1F3082	07AA84	
196	196	0D	1	140A03	04940C	0D1C05	0DCE06	0A73D4	0ADF85	1F3082	07AA84	
197	197	0D	1	140A03	08940C	0D1C05	0DCE06	0A73D4	0ADF85	1F3082	07AA84	
198	198	0D	1	140A03	0CCF83	0D1C05	0DCE06	0A73D4	0ADF85	1F3082	07AA84	
199	199	0E	6	140A03	10FE04	0D1C05	0DCE06	0A73D4	0ADF85	1F3082	07AA84	
200	200	0E	1	140A03	10FE04	0D1C05	0DCE06	0A73D4	0ADF85	1F3082	07AA84	
201	201	0E	4	140A03	10FE04	0D1C05	0DCE06	0A73D4	0ADF85	03688D	07AA84	
202	202	0E	0	140A03	04C48D	0D1C05	0DCE06	0A73D4	0ADF85	03688D	07AA84	
203	203	0E	2	140A03	04C48D	0D1C05	0DCE06	166403	0ADF85	03688D	07AA84	
204	204	0E	7	141B07	04C48D	0D1C05	0DCE06	166403	0ADF85	03688D	07AA84	
205	205	0E	6	141B07	04C48D	151C0F	0DCE06	166403	0ADF85	03688D	07AA84	
206	206	0E	4	141B07	04C48D	151C0F	0DCE06	166403	0ADF85	03688D	1BFB80	
207	207	0E	7	141B07	04C48D	151C0F	0DCE06	166403	0ADF85	1F688D	1BFB80	
208	208	0E	1	141B07	04C48D	151C0F	0DCE06	164A15	0ADF85	1F688D	1BFB80	
209	209	0E	1	141B07	04C48D	151C0F	0DCE06	164A15	0ADF85	1F688D	0BAB14	
210	210	0F	1	141B07	188CD7	151C0F	0DCE06	164A15	0ADF85	1F688D	0BAB14	
211	211	0F	1	141B07	188CD7	151C0F	0DCE06	164A15	0ADF85	1F688D	0BAB14	
212	212	0F	6	141B07	04C40F	151C0F	0DCE06	164A15	0ADF85	1F688D	0BAB14	
213	213	0F	3	141B07	08CA0B	151C0F	0DCE06	164A15	0ADF85	1F688D	0BAB14	
214	214	0F	7	141B07	08CA0B	151C0F	0DCE06	164A15	0ADF85	133082	0BAB14	
215	215	0F	7	141B07	08CA0B	151C0F	15D204	164A15	0ADF85	133082	0BAB14	
216	216	0F	7	141B07	08CA0B	151C0F	15D204	164A15	0ADF85	133082	178187	
217	217	0F	3	141B07	08CA0B	151C0F	15D204	164A15	0ADF85	133082	0BF989	
218	218	0F	7	141B07	08CA0B	151C0F	15D204	164A15	0ADF85	133082	178187	
219	219	0F	1	141B07	08CA0B	151C0F	01F91B	164A15	0ADF85	133082	178187	
220	220	0F	1	141B07	08CA0B	151C0F	01F91B	164A15	0ADF85	133082	0BAD53	
221	221	10	1	141B07	08FAD7	151C0F	01F91B	164A15	0ADF85	133082	0BAD53	
222	222	10	1	141B07	08FAD7	151C0F	01F91B	164A15	0ADF85	133082	0BAD53	
223	223	10	1	141B07	04C48D	151C0F	01F91B	164A15	0ADF85	133082	0BAD53	
224	224	10	0	141B07	08C48D	151C0F	01F91B	164A15	0ADF85	133082	0BAD53	
225	225	10	7	141B07	108608	151C0F	01F91B	164A15	0ADF85	133082	0BAD53	
226	226	10	1	1C0C00	108608	151C0F	01F91B	164A15	0ADF85	133082	0BAD53	
227	227	10	1	1C0C00	108608	151C0F	01F91B	164A15	0ADF85	133082	13AB56	
228	228	10	6	1C0C00	108658	151C0F	01F91B	164A15	0ADF85	133082	13AB56	
229	229	10	6	1C0C00	08C96D	151C0F	01F91B	164A15	0ADF85	133082	13AB56	
230	230	10	1	1C0C00	08C96D	151C0F	01F91B	164A15	0ADF85	0B3667	13AB56	
231	231	10	1	1C0C00	08C96D	151C0F	01F91B	164A15	0ADF85	073667	13AB56	
232	232	11	1	1C0C00	04C96D	151C0F	01F91B	164A15	0ADF85	073667	13AB56	
233	233	11	1	1C0C00	04C96D	151C0F	01F91B	164A15	0ADF85	073667	13AB56	
234	234	11	6	1C0C00	04C40F	151C0F	01F91B	164A15	0ADF85	073667	13AB56	
235	235	11	0	1C0C00	08C40F	151C0F	01F91B	164A15	0ADF85	073667	13AB56	
236	236	11	0	1C0C00	08C40F	151C0F	01F91B	164A15	0ADF85	171A80	13AB56	
237	237	11	4	106D04	08C40F	151C0F	01F91B	164A15	0ADF85	171A80	13AB56	
238	238	11	1	046D1E	08C40F	151C0F	01F91B	164A15	0ADF85	171A80	13AB56	
239	239	11	0	046D1E	08C40F	151C0F	01F91B	0A6895	0ADF85	171A80	13AB56	
240	240	11	1	046D1E	08C097	151C0F	01F91B	0A6895	0ADF85	171A80	13AB56	
241	241	11	4	086D1E	08C097	151C0F	01F91B	0A6895	0ADF85	171A80	13AB56	
242	242	11	4	086D1E	04C097	151C0F	01F91B	0A6895	0ADF85	171A80	13AB56	
243	243	12	4	086D1E	04C097	151C0F	01F91B	066895	0ADF85	171A80	13AB56	
244	244	12	3	086D1E	04C097	151C0F	01F91B	066895	0ADF85	171A80	13AB56	
245	245	12	2	086D1E	04C097	151C0F	01F91B	12558C	0ADF85	171A80	13AB56	
246	246	12	0	086D1E	04C097	151C0F	09C18E	12558C	0ADF85	171A80	13AB56	
247	247	12	7	086D1E	04C097	0D4900	09C18E	12558C	0ADF85	171A80	13AB56	
248	248	12	3	107507	04C097	0D4900	09C18E	12558C	0ADF85	171A80	13AB56	
249	249	12	3	107507	04C097	0D4900	09C18E	12558C	0ADF85	171A80	138587	
250	250	12	3	107507	04C097	0D4900	018584	12558C	0ADF85	171A80	138587	
251	251	12	5	107507	04C097	0D4900	09C1DE	12558C	0ADF85	171A80	138587	
252	252	12	6	107507	04C097	0D4900	01E85B	12558C	0ADF85	171A80	138587	
253	253	12	6	107507	04C097	0D4900	01E85B	12558C	12C711	171A80	138587	
254	254	13	3	107507	04C097	0D4900	01E85B	12558C	12C711	0B2A92	138587	
255	255	13	3	107507	04C097	0D4900	01E85B	12558C	12C711	0B2A92	138587	
256	256	13	1	107507	04C097	0D4900	05F50C	12558C	12C711	0B2A92	138587	
257	257	13	5	107507	04C097	0D4900	05F50C	12558C	12C711	0B2A92	138587	
258	258	13	4	107507	089A80	0D4900	05F50C	12558C	12C711	0B2A92	138587	
259	259	13	4	107507	089A80	0D4900	05F50C	12558C	1A8181	0B2A92	138587	
260	260	13	2	107507	089A80	0D4900	05F50C	02068F	1A8181	0B2A92	138587	
261	261	13	2	107507	089A80	0D4900	05F50C	02130F	1A8181	0B2A92	138587	
262	262	13	5	107507	089A80	052508	05F50C	02130F	1A8181	0B2A92	138587	
263	263	13	4	107507	089A80	052508	05F50C	02130F	1A8181	0B2A92	138587	
264	264	13	4	107507	089A80	052508	05F50C	02130F	02AA82	0B2A92	138587	
265	265	14	4	107507	089A80	052508	05F50C	022614	02AA82	0B2A92	138587	
266	266	14	6	107507	089A80	052508	05F50C	022614	02AA82	0B2A92	138587	
267	267	14	6	107507	089A80	052508	05F50C	0A7086	02AA82	0B2A92	138587	
268	268	14	7	107507	089A80	052508	05F50C	0A7086	02AA82	0B0B87	138587	
269	269	14	1	107507	089A80	052508	05F50C	0A7086	02AA82	031206	138587	
270	270	14	0	107507	089A80	052508	05F50C	0A7086	02AA82	031206	03DF0A	
271	271	14	6	107507	08FA00	052508	05F50C	0A7086	02AA82	031206	03DF0A	
272	272	14	6	085282	08FA00	052508	05F50C	0A7086	02AA82	031206	03DF0A	
273	273	14	5	085282	08FA00	052508	05F50C	0A7086	02AA82	0B2A84	03DF0A	
274	274	14	6	085282	08FA00	052508	05F50C	0A7086	02AA82	0B4485	03DF0A	
275	275	14	6	085282	08FA00	052508	05F50C	0A7086	02F103	0B4485	03DF0A	
276	276	15	5	085282	08FA00	052508	05F50C	0A7086	02F103	0B6208	03DF0A	
277	277	15	3	085282	08FA00	052508	05F50C	0A7086	02F103	0B6208	03DF0A	
278	278	15	7	085282	08FA00	052508	05F50C	0A7086	0AE386	0B6208	03DF0A	
279	279	15	3	085282	08FA00	052508	0DD204	0A7086	0AE386	0B6208	03DF0A	
280	280	15	5	085282	08FA00	052508	0DD204	0A7086	0AE386	0B6208	0F8187	
281	281	15	7	085282	08FA00	052508	11D68A	0A7086	0AE386	0B6208	0F8187	
282	282	15	7	085282	08FA00	052508	11D68A	0A7086	16A787	0B6208	0F8187	
283	283	15	7	085282	08FA00	052508	11D68A	0A7086	16A787	0B6208	17EB8D	
284	284	15	3	085282	08FA00	052508	11D68A	0A7086	16A787	0B6208	0B9B89	
285	285	15	4	085282	08FA00	052508	11D68A	0A7086	16A787	0B6208	0F8187	
286	286	15	4	085282	08FA00	052508	11D603	0A7086	16A787	0B6208	0F8187	
