Sample in Buffer	Sample in Window	addra_0	douta_0m	douta_1m	douta_2m	douta_3m	douta_4m	douta_5m	douta_6m	douta_7m
0	0	0B	103E82	1CB080	012A09	1DC05D	16230A	1EE50B	1B3A17	07AA84	
1	1	0C	103E82	1CB080	012A09	1DC05D	16230A	1EE50B	1B3A17	07AA84	
2	2	0C	103E82	1CB080	012A09	1DC05D	16230A	1EE50B	1B3A17	07AA84	
3	3	0C	103E82	1CB080	012A09	1DC05D	16230A	1EE50B	1B3A17	07AA84	
4	4	0C	103E82	1CB080	05601E	1DC05D	16230A	1EE50B	1B3A17	07AA84	
5	5	0C	103E82	1CB080	05601E	1DC05D	16230A	1EE50B	1B3A17	07AA84	
6	6	0C	103E82	1CB080	05601E	1DC05D	16230A	1EE50B	1B3A17	07AA84	
7	7	0C	103E82	1CB080	05601E	1DC05D	16230A	1EE50B	1B3A17	07AA84	
8	8	0C	000C00	1CB080	05601E	1DC05D	16230A	1EE50B	1B3A17	07AA84	
9	9	0C	000C00	1CB080	05601E	1DC05D	16230A	1EE50B	1B3A17	07AA84	
10	10	0C	000C00	1CB080	05601E	1DC05D	16230A	06E002	1B3A17	07AA84	
11	11	0C	000C00	1CB080	05601E	1DC05D	16230A	06E002	1B3A17	07AA84	
12	12	0C	000C00	1CB080	05601E	1DC05D	067384	06E002	1B3A17	07AA84	
13	13	0C	000C00	1CB080	05601E	1DC05D	067384	06E002	1B3A17	07AA84	
14	14	0C	000C00	1CB080	05601E	1DC05D	067384	0AE002	1B3A17	07AA84	
15	15	0C	000C00	1CB080	05601E	1DC05D	067384	0AE002	1B3A17	07AA84	
16	16	0C	000C00	1CB080	05601E	1DC05D	0A7384	0AE002	1B3A17	07AA84	
17	17	0C	000C00	1CB080	05601E	1DC05D	0A7384	0AE002	1B3A17	07AA84	
18	18	0C	000C00	1CB080	0D1C05	1DC05D	0A7384	0AE002	1B3A17	07AA84	
19	19	0C	000C00	1CB080	0D1C05	1DC05D	0A7384	0AE002	1B3A17	07AA84	
20	20	0C	000C00	1CB080	0D1C05	0DDE8D	0A7384	0AE002	1B3A17	07AA84	
21	21	0C	000C00	1CB080	0D1C05	0DDE8D	0A7384	0AE002	1B3A17	07AA84	
22	22	0C	140A03	1CB080	0D1C05	0DDE8D	0A7384	0AE002	1B3A17	07AA84	
23	23	0C	140A03	1CB080	0D1C05	0DDE8D	0A7384	0AE002	1B3A17	07AA84	
24	24	0C	140A03	1CB080	0D1C05	0DDE8D	0673D4	0AE002	1B3A17	07AA84	
25	25	0C	140A03	1CB080	0D1C05	0DDE8D	0673D4	0AE002	1B3A17	07AA84	
26	26	0C	140A03	1CB080	0D1C05	0DDE8D	0673D4	0AE002	1B3A17	07AA84	
27	27	0C	140A03	1CB080	0D1C05	0DDE8D	0673D4	0AE002	1B3A17	07AA84	
28	28	0C	140A03	1CB080	0D1C05	0DDE8D	0673D4	0AE002	1B3A17	07AA84	
29	29	0C	140A03	1CB080	0D1C05	0DDE8D	0673D4	0AE002	1B3A17	07AA84	
30	30	0C	140A03	1CB080	0D1C05	0DDE8D	0673D4	0AE002	1B3A17	07AA84	
31	31	0C	140A03	1CB080	0D1C05	0DDE8D	0673D4	0AE002	1B3A17	07AA84	
32	32	0C	140A03	1CB080	0D1C05	0DDE8D	0673D4	0AE002	1B3A17	07AA84	
33	33	0C	140A03	1CB080	0D1C05	0DDE8D	0673D4	0AE002	1B3A17	07AA84	
34	34	0C	140A03	1CB080	0D1C05	0DDE8D	0673D4	0AE002	1B3A17	07AA84	
35	35	0C	140A03	1CB080	0D1C05	0DDE8D	0673D4	0AE002	1B3A17	07AA84	
36	36	0C	140A03	1CB080	0D1C05	0DDE8D	0673D4	0AE002	1B3A17	07AA84	
37	37	0C	140A03	1CB080	0D1C05	0DDE8D	0673D4	0AE002	1B3A17	07AA84	
38	38	0C	140A03	1CB080	0D1C05	0DDE8D	0673D4	0AE002	1B3A17	07AA84	
39	39	0C	140A03	1CB080	0D1C05	0DDE8D	0673D4	0AE002	1B3A17	07AA84	
40	40	0C	140A03	1CB080	0D1C05	0DDE8D	0673D4	0AE002	1B3A17	07AA84	
41	41	0C	140A03	1CB080	0D1C05	0DDE8D	0673D4	0AE002	1B3A17	07AA84	
42	42	0C	140A03	1CB080	0D1C05	0DDE8D	0673D4	0AE002	1B3A17	07AA84	
43	43	0C	140A03	1CB080	0D1C05	0DDE8D	0673D4	0AE002	1B3A17	07AA84	
44	44	0C	140A03	1CB080	0D1C05	0DDE8D	0673D4	0AE002	1B3A17	07AA84	
45	45	0C	140A03	1CB080	0D1C05	0DDE8D	0673D4	0AE002	1B3A17	07AA84	
46	46	0C	140A03	1CB080	0D1C05	0DDE8D	0673D4	0AE002	1B3A17	07AA84	
47	47	0C	140A03	1CB080	0D1C05	0DDE8D	0673D4	0AE002	1B3A17	07AA84	
48	48	0C	140A03	1CB080	0D1C05	0DDE8D	0673D4	0AE002	1B3A17	07AA84	
49	49	0C	140A03	1CB080	0D1C05	0DDE8D	0673D4	0AE002	1B3A17	07AA84	
50	50	0C	140A03	1CB080	0D1C05	0DDE8D	0673D4	0AE002	1B3A17	07AA84	
51	51	0C	140A03	1CB080	0D1C05	0DDE8D	0673D4	0AE002	1B3A17	07AA84	
52	52	0C	140A03	1CB080	0D1C05	0DDE8D	0673D4	0AE002	1B3A17	07AA84	
53	53	0C	140A03	1CB080	0D1C05	0DDE8D	0673D4	0AE002	1B3A17	07AA84	
54	54	0C	140A03	1CB080	0D1C05	0DDE8D	0673D4	0AE002	1B3A17	07AA84	
55	55	0C	140A03	1CB080	0D1C05	0DDE8D	0673D4	0AE002	1B3A17	07AA84	
56	56	0C	140A03	1CB080	0D1C05	0DDE8D	0673D4	0AE002	1B3A17	07AA84	
57	57	0C	140A03	1CB080	0D1C05	0DDE8D	0673D4	0AE002	1B3A17	07AA84	
58	58	0C	140A03	1CB080	0D1C05	0DDE8D	0673D4	0AE002	1B3A17	07AA84	
59	59	0C	140A03	1CB080	0D1C05	0DDE8D	0673D4	0AE002	1B3A17	07AA84	
60	60	0C	140A03	1CB080	0D1C05	0DDE8D	0673D4	0AE002	1B3A17	07AA84	
61	61	0C	140A03	1CB080	0D1C05	0DDE8D	0673D4	0AE002	1B3A17	07AA84	
62	62	0C	140A03	1CB080	0D1C05	0DDE8D	0673D4	0AE002	1B3A17	07AA84	
63	63	0C	140A03	1CB080	0D1C05	0DDE8D	0673D4	0AE002	1B3A17	07AA84	
64	64	0C	140A03	1CB080	0D1C05	0DDE8D	0673D4	0AE002	1B3A17	07AA84	
65	65	0C	140A03	1CB080	0D1C05	0DDE8D	0673D4	0AE002	1B3A17	07AA84	
66	66	0C	140A03	1CB080	0D1C05	0DDE8D	0673D4	0AE002	1B3A17	07AA84	
67	67	0C	140A03	1CB080	0D1C05	0DDE8D	0673D4	0AE002	1B3A17	07AA84	
68	68	0C	140A03	1CB080	0D1C05	0DDE8D	0673D4	0AE002	1B3A17	07AA84	
69	69	0C	140A03	1CB080	0D1C05	0DDE8D	0673D4	0AE002	1B3A17	07AA84	
70	70	0C	140A03	1CB080	0D1C05	0DDE8D	0673D4	0AE002	1B3A17	07AA84	
71	71	0C	140A03	1CB080	0D1C05	0DDE8D	0673D4	0AE002	1B3A17	07AA84	
72	72	0C	140A03	1CB080	0D1C05	0DDE8D	0673D4	0AE002	1B3A17	07AA84	
73	73	0C	140A03	1CB080	0D1C05	0DDE8D	0673D4	0AE002	1B3A17	07AA84	
74	74	0C	140A03	1CB080	0D1C05	0DDE8D	0673D4	0AE002	1B3A17	07AA84	
75	75	0C	140A03	1CB080	0D1C05	0DDE8D	0673D4	0AE002	1B3A17	07AA84	
76	76	0C	140A03	1CB080	0D1C05	0DDE8D	0673D4	0AE002	1B3A17	07AA84	
77	77	0C	140A03	1CB080	0D1C05	0DDE8D	0673D4	0AE002	1B3A17	07AA84	
78	78	0C	140A03	1CB080	0D1C05	0DDE8D	0673D4	0AE002	1B3A17	07AA84	
79	79	0C	140A03	1CB080	0D1C05	0DDE8D	0673D4	0AE002	1B3A17	07AA84	
80	80	0C	140A03	1CB080	0D1C05	0DDE8D	0673D4	0AE002	1B3A17	07AA84	
81	81	0C	140A03	1CB080	0D1C05	0DDE8D	0673D4	0AE002	1B3A17	07AA84	
82	82	0C	140A03	1CB080	0D1C05	0DDE8D	0673D4	0AE002	1B3A17	07AA84	
83	83	0C	140A03	1CB080	0D1C05	0DDE8D	0673D4	0AE002	1B3A17	07AA84	
84	84	0C	140A03	1CB080	0D1C05	0DDE8D	0673D4	0AE002	1B3A17	07AA84	
85	85	0C	140A03	1CB080	0D1C05	0DDE8D	0673D4	0AE002	1B3A17	07AA84	
86	86	0C	140A03	1CB080	0D1C05	0DDE8D	0673D4	0AE002	1B3A17	07AA84	
87	87	0C	140A03	1CB080	0D1C05	0DDE8D	0673D4	0AE002	1B3A17	07AA84	
88	88	0C	140A03	1CB080	0D1C05	0DDE8D	0673D4	0AE002	1B3A17	07AA84	
89	89	0C	140A03	1CB080	0D1C05	0DDE8D	0673D4	0AE002	1B3A17	07AA84	
90	90	0C	140A03	1CB080	0D1C05	0DDE8D	0673D4	0AE002	1B3A17	07AA84	
91	91	0C	140A03	1CB080	0D1C05	0DDE8D	0673D4	0AE002	1B3A17	07AA84	
92	92	0C	140A03	1CB080	0D1C05	0DDE8D	0673D4	0AE002	1B3A17	07AA84	
93	93	0C	140A03	1CB080	0D1C05	0DDE8D	0673D4	0AE002	1B3A17	07AA84	
94	94	0C	140A03	1CB080	0D1C05	0DDE8D	0673D4	0AE002	1B3A17	07AA84	
95	95	0C	140A03	1CB080	0D1C05	0DDE8D	0673D4	0AE002	1B3A17	07AA84	
96	96	0C	140A03	1CB080	0D1C05	0DDE8D	0673D4	0AE002	1B3A17	07AA84	
97	97	0C	140A03	1CB080	0D1C05	0DDE8D	0673D4	0AE002	1B3A17	07AA84	
98	98	0C	140A03	1CB080	0D1C05	0DDE8D	0673D4	0AE002	1B3A17	07AA84	
99	99	0C	140A03	1CB080	0D1C05	0DDE8D	0673D4	0AE002	1B3A17	07AA84	
100	100	0C	140A03	1CB080	0D1C05	0DDE8D	0673D4	0AE002	1B3A17	07AA84	
101	101	0C	140A03	1CB080	0D1C05	0DDE8D	0673D4	0AE002	1B3A17	07AA84	
102	102	0C	140A03	1CB080	0D1C05	0DDE8D	0673D4	0AE002	1B3A17	07AA84	
103	103	0C	140A03	1CB080	0D1C05	0DDE8D	0673D4	0AE002	1B3A17	07AA84	
104	104	0C	140A03	1CB080	0D1C05	0DDE8D	0673D4	0AE002	1B3A17	07AA84	
105	105	0C	140A03	1CB080	0D1C05	0DDE8D	0673D4	0AE002	1B3A17	07AA84	
106	106	0C	140A03	1CB080	0D1C05	0DDE8D	0673D4	0AE002	1B3A17	07AA84	
107	107	0C	140A03	1CB080	0D1C05	0DDE8D	0673D4	0AE002	1B3A17	07AA84	
108	108	0C	140A03	1CB080	0D1C05	0DDE8D	0673D4	0AE002	1B3A17	07AA84	
109	109	0C	140A03	1CB080	0D1C05	0DDE8D	0673D4	0AE002	1B3A17	07AA84	
110	110	0C	140A03	1CB080	0D1C05	0DDE8D	0673D4	0AE002	1B3A17	07AA84	
111	111	0C	140A03	1CB080	0D1C05	0DDE8D	0673D4	0AE002	1B3A17	07AA84	
112	112	0C	140A03	1CB080	0D1C05	0DDE8D	0673D4	0AE002	1B3A17	07AA84	
113	113	0C	140A03	1CB080	0D1C05	0DDE8D	0673D4	0AE002	1B3A17	07AA84	
114	114	0C	140A03	1CB080	0D1C05	0DDE8D	0673D4	0AE002	1B3A17	07AA84	
115	115	0C	140A03	1CB080	0D1C05	0DDE8D	0673D4	0AE002	1B3A17	07AA84	
116	116	0C	140A03	1CB080	0D1C05	0DDE8D	0673D4	0AE002	1B3A17	07AA84	
117	117	0C	140A03	1CB080	0D1C05	0DDE8D	0673D4	0AE002	1B3A17	07AA84	
118	118	0C	140A03	1CB080	0D1C05	0DDE8D	0673D4	0AE002	1B3A17	07AA84	
119	119	0C	140A03	1CB080	0D1C05	0DDE8D	0673D4	0AE002	1B3A17	07AA84	
120	120	0C	140A03	1CB080	0D1C05	0DDE8D	0673D4	0AE002	1B3A17	07AA84	
121	121	0C	140A03	1CB080	0D1C05	0DDE8D	0673D4	0AE002	1B3A17	07AA84	
122	122	0C	140A03	1CB080	0D1C05	0DDE8D	0673D4	0AE002	1B3A17	07AA84	
123	123	0C	140A03	1CB080	0D1C05	0DDE8D	0673D4	0AE002	1B3A17	07AA84	
124	124	0C	140A03	1CB080	0D1C05	0DDE8D	0673D4	0AE002	1B3A17	07AA84	
125	125	0C	140A03	1CB080	0D1C05	0DDE8D	0673D4	0AE002	1B3A17	07AA84	
126	126	0C	140A03	1CB080	0D1C05	0DDE8D	0673D4	0AE002	1B3A17	07AA84	
127	127	0C	140A03	1CB080	0D1C05	0DDE8D	0673D4	0AE002	1B3A17	07AA84	
128	128	0C	140A03	1CB080	0D1C05	0DDE8D	0673D4	0AE002	1B3A17	07AA84	
129	129	0C	140A03	1CB080	0D1C05	0DDE8D	0673D4	0AE002	1B3A17	07AA84	
130	130	0C	140A03	1CB080	0D1C05	0DDE8D	0673D4	0AE002	1B3A17	07AA84	
131	131	0C	140A03	1CB080	0D1C05	0DDE8D	0673D4	0AE002	1B3A17	07AA84	
132	132	0C	140A03	1CB080	0D1C05	0DDE8D	0673D4	0AE002	1B3A17	07AA84	
133	133	0C	140A03	1CB080	0D1C05	0DDE8D	0673D4	0AE002	1B3A17	07AA84	
134	134	0C	140A03	1CB080	0D1C05	0DDE8D	0673D4	0AE002	1B3A17	07AA84	
135	135	0C	140A03	1CB080	0D1C05	0DDE8D	0673D4	0AE002	1B3A17	07AA84	
136	136	0C	140A03	1CB080	0D1C05	0DDE8D	0673D4	0AE002	1B3A17	07AA84	
137	137	0C	140A03	1CB080	0D1C05	0DDE8D	0673D4	0AE002	1B3A17	07AA84	
138	138	0C	140A03	1CB080	0D1C05	0DDE8D	0673D4	0AE002	1B3A17	07AA84	
139	139	0C	140A03	1CB080	0D1C05	0DDE8D	0673D4	0AE002	1B3A17	07AA84	
140	140	0C	140A03	1CB080	0D1C05	0DDE8D	0673D4	0AE002	1B3A17	07AA84	
141	141	0C	140A03	1CB080	0D1C05	0DDE8D	0673D4	0AE002	1B3A17	07AA84	
142	142	0C	140A03	1CB080	0D1C05	0DDE8D	0673D4	0AE002	1B3A17	07AA84	
143	143	0C	140A03	1CB080	0D1C05	0DDE8D	0673D4	0AE002	1B3A17	07AA84	
144	144	0C	140A03	1CB080	0D1C05	0DDE8D	0673D4	0AE002	1B3A17	07AA84	
145	145	0C	140A03	1CB080	0D1C05	0DDE8D	0673D4	0AE002	1B3A17	07AA84	
146	146	0C	140A03	1CB080	0D1C05	0DDE8D	0673D4	0AE002	1B3A17	07AA84	
147	147	0C	140A03	1CB080	0D1C05	0DDE8D	0673D4	0AE002	1B3A17	07AA84	
148	148	0C	140A03	1CB080	0D1C05	0DDE8D	0673D4	0AE002	1B3A17	07AA84	
149	149	0C	140A03	1CB080	0D1C05	0DDE8D	0673D4	0AE002	1B3A17	07AA84	
150	150	0C	140A03	1CB080	0D1C05	0DDE8D	0673D4	0AE002	1B3A17	07AA84	
151	151	0C	140A03	1CB080	0D1C05	0DDE8D	0673D4	0AE002	1B3A17	07AA84	
152	152	0C	140A03	1CB080	0D1C05	0DDE8D	0673D4	0AE002	1B3A17	07AA84	
153	153	0C	140A03	1CB080	0D1C05	0DDE8D	0673D4	0AE002	1B3A17	07AA84	
154	154	0C	140A03	1CB080	0D1C05	0DDE8D	0673D4	0AE002	1B3A17	07AA84	
155	155	0C	140A03	1CB080	0D1C05	0DDE8D	0673D4	0AE002	1B3A17	07AA84	
156	156	0C	140A03	1CB080	0D1C05	0DDE8D	0673D4	0AE002	1B3A17	07AA84	
157	157	0C	140A03	1CB080	0D1C05	0DDE8D	0673D4	0AE002	1B3A17	07AA84	
158	158	0C	140A03	1CB080	0D1C05	0DDE8D	0673D4	0AE002	1B3A17	07AA84	
159	159	0C	140A03	1CB080	0D1C05	0DDE8D	0673D4	0AE002	1B3A17	07AA84	
160	160	0C	140A03	1CB080	0D1C05	0DDE8D	0673D4	0AE002	1B3A17	07AA84	
161	161	0C	140A03	1CB080	0D1C05	0DDE8D	0673D4	0AE002	1B3A17	07AA84	
162	162	0C	140A03	1CB080	0D1C05	0DDE8D	0673D4	0AE002	1B3A17	07AA84	
163	163	0C	140A03	1CB080	0D1C05	0DDE8D	0673D4	0AE002	1B3A17	07AA84	
164	164	0C	140A03	1CB080	0D1C05	0DDE8D	0673D4	0AE002	1B3A17	07AA84	
165	165	0C	140A03	1CB080	0D1C05	0DDE8D	0673D4	0AE002	1B3A17	07AA84	
166	166	0C	140A03	1CB080	0D1C05	0DDE8D	0673D4	0AE002	1B3A17	07AA84	
167	167	0C	140A03	1CB080	0D1C05	0DDE8D	0673D4	0AE002	1B3A17	07AA84	
168	168	0C	140A03	1CB080	0D1C05	0DDE8D	0673D4	0AE002	1B3A17	07AA84	
169	169	0C	140A03	1CB080	0D1C05	0DDE8D	0673D4	0AE002	1B3A17	07AA84	
170	170	0C	140A03	1CB080	0D1C05	0DDE8D	0673D4	0AE002	1B3A17	07AA84	
171	171	0C	140A03	1CB080	0D1C05	0DDE8D	0673D4	0AE002	1B3A17	07AA84	
172	172	0C	140A03	1CB080	0D1C05	0DDE8D	0673D4	0AE002	1B3A17	07AA84	
173	173	0C	140A03	1CB080	0D1C05	0DDE8D	0673D4	0AE002	1B3A17	07AA84	
174	174	0C	140A03	1CB080	0D1C05	0DDE8D	0673D4	0AE002	1B3A17	07AA84	
175	175	0C	140A03	1CB080	0D1C05	0DDE8D	0673D4	0AE002	1B3A17	07AA84	
176	176	0C	140A03	1CB080	0D1C05	0DDE8D	0673D4	0AE002	1B3A17	07AA84	
177	177	0C	140A03	1CB080	0D1C05	0DDE8D	0673D4	0AE002	1B3A17	07AA84	
178	178	0C	140A03	1CB080	0D1C05	0DDE8D	0673D4	0AE002	1B3A17	07AA84	
179	179	0C	140A03	1CB080	0D1C05	0DDE8D	0673D4	0AE002	1B3A17	07AA84	
180	180	0C	140A03	1CB080	0D1C05	0DDE8D	0673D4	0AE002	1B3A17	07AA84	
181	181	0C	140A03	1CB080	0D1C05	0DDE8D	0673D4	0AE002	1B3A17	07AA84	
182	182	0C	140A03	1CB080	0D1C05	0DDE8D	0673D4	0AE002	1B3A17	07AA84	
183	183	0C	140A03	1CB080	0D1C05	0DDE8D	0673D4	0AE002	1B3A17	07AA84	
184	184	0C	140A03	1CB080	0D1C05	0DDE8D	0673D4	0AE002	1B3A17	07AA84	
185	185	0C	140A03	1CB080	0D1C05	0DDE8D	0673D4	0AE002	1B3A17	07AA84	
186	186	0C	140A03	1CB080	0D1C05	0DDE8D	0673D4	0AE002	1B3A17	07AA84	
187	187	0C	140A03	1CB080	0D1C05	0DDE8D	0673D4	0AE002	1B3A17	07AA84	
188	188	0C	140A03	1CB080	0D1C05	0DDE8D	0673D4	0AE002	1B3A17	07AA84	
189	189	0C	140A03	1CB080	0D1C05	0DDE8D	0673D4	0AE002	1B3A17	07AA84	
190	190	0C	140A03	1CB080	0D1C05	0DDE8D	0673D4	0AE002	1B3A17	07AA84	
191	191	0C	140A03	1CB080	0D1C05	0DDE8D	0673D4	0AE002	1B3A17	07AA84	
192	192	0C	140A03	1CB080	0D1C05	0DDE8D	0673D4	0AE002	1B3A17	07AA84	
193	193	0C	140A03	1CB080	0D1C05	0DDE8D	0673D4	0AE002	1B3A17	07AA84	
194	194	0C	140A03	1CB080	0D1C05	0DDE8D	0673D4	0AE002	1B3A17	07AA84	
195	195	0C	140A03	1CB080	0D1C05	0DDE8D	0673D4	0AE002	1B3A17	07AA84	
196	196	0C	140A03	1CB080	0D1C05	0DDE8D	0673D4	0AE002	1B3A17	07AA84	
197	197	0C	140A03	1CB080	0D1C05	0DDE8D	0673D4	0AE002	1B3A17	07AA84	
198	198	0C	140A03	1CB080	0D1C05	0DDE8D	0673D4	0AE002	1B3A17	07AA84	
199	199	0C	140A03	1CB080	0D1C05	0DDE8D	0673D4	0AE002	1B3A17	07AA84	
200	200	0C	140A03	1CB080	0D1C05	0DDE8D	0673D4	0AE002	1B3A17	07AA84	
201	201	0C	140A03	1CB080	0D1C05	0DDE8D	0673D4	0AE002	1B3A17	07AA84	
202	202	0C	140A03	1CB080	0D1C05	0DDE8D	0673D4	0AE002	1B3A17	07AA84	
203	203	0C	140A03	1CB080	0D1C05	0DDE8D	0673D4	0AE002	1B3A17	07AA84	
204	204	0C	140A03	1CB080	0D1C05	0DDE8D	0673D4	0AE002	1B3A17	07AA84	
205	205	0C	140A03	1CB080	0D1C05	0DDE8D	0673D4	0AE002	1B3A17	07AA84	
206	206	0C	140A03	1CB080	0D1C05	0DDE8D	0673D4	0AE002	1B3A17	07AA84	
207	207	0C	140A03	1CB080	0D1C05	0DDE8D	0673D4	0AE002	1B3A17	07AA84	
208	208	0C	140A03	1CB080	0D1C05	0DDE8D	0673D4	0AE002	1B3A17	07AA84	
209	209	0C	140A03	1CB080	0D1C05	0DDE8D	0673D4	0AE002	1B3A17	07AA84	
210	210	0C	140A03	1CB080	0D1C05	0DDE8D	0673D4	0AE002	1B3A17	07AA84	
211	211	0C	140A03	1CB080	0D1C05	0DDE8D	0673D4	0AE002	1B3A17	07AA84	
212	212	0C	140A03	1CB080	0D1C05	0DDE8D	0673D4	0AE002	1B3A17	07AA84	
213	213	0C	140A03	1CB080	0D1C05	0DDE8D	0673D4	0AE002	1B3A17	07AA84	
214	214	0C	140A03	1CB080	0D1C05	0DDE8D	0673D4	0AE002	1B3A17	07AA84	
215	215	0C	140A03	1CB080	0D1C05	0DDE8D	0673D4	0AE002	1B3A17	07AA84	
216	216	0C	140A03	1CB080	0D1C05	0DDE8D	0673D4	0AE002	1B3A17	07AA84	
217	217	0C	140A03	1CB080	0D1C05	0DDE8D	0673D4	0AE002	1B3A17	07AA84	
218	218	0C	140A03	1CB080	0D1C05	0DDE8D	0673D4	0AE002	1B3A17	07AA84	
219	219	0C	140A03	1CB080	0D1C05	0DDE8D	0673D4	0AE002	1B3A17	07AA84	
220	220	0C	140A03	1CB080	0D1C05	0DDE8D	0673D4	0AE002	1B3A17	07AA84	
221	221	0C	140A03	1CB080	0D1C05	0DDE8D	0673D4	0AE002	1B3A17	07AA84	
222	222	0C	140A03	1CB080	0D1C05	0DDE8D	0673D4	0AE002	1B3A17	07AA84	
223	223	0C	140A03	1CB080	0D1C05	0DDE8D	0673D4	0AE002	1B3A17	07AA84	
224	224	0C	140A03	1CB080	0D1C05	0DDE8D	0673D4	0AE002	1B3A17	07AA84	
225	225	0C	140A03	1CB080	0D1C05	0DDE8D	0673D4	0AE002	1B3A17	07AA84	
226	226	0C	140A03	1CB080	0D1C05	0DDE8D	0673D4	0AE002	1B3A17	07AA84	
227	227	0C	140A03	1CB080	0D1C05	0DDE8D	0673D4	0AE002	1B3A17	07AA84	
228	228	0C	140A03	1CB080	0D1C05	0DDE8D	0673D4	0AE002	1B3A17	07AA84	
229	229	0C	140A03	1CB080	0D1C05	0DDE8D	0673D4	0AE002	1B3A17	07AA84	
230	230	0C	140A03	1CB080	0D1C05	0DDE8D	0673D4	0AE002	1B3A17	07AA84	
231	231	0C	140A03	1CB080	0D1C05	0DDE8D	0673D4	0AE002	1B3A17	07AA84	
232	232	0C	140A03	1CB080	0D1C05	0DDE8D	0673D4	0AE002	1B3A17	07AA84	
233	233	0C	140A03	1CB080	0D1C05	0DDE8D	0673D4	0AE002	1B3A17	07AA84	
234	234	0C	140A03	1CB080	0D1C05	0DDE8D	0673D4	0AE002	1B3A17	07AA84	
235	235	0C	140A03	1CB080	0D1C05	0DDE8D	0673D4	0AE002	1B3A17	07AA84	
236	236	0C	140A03	1CB080	0D1C05	0DDE8D	0673D4	0AE002	1B3A17	07AA84	
237	237	0C	140A03	1CB080	0D1C05	0DDE8D	0673D4	0AE002	1B3A17	07AA84	
238	238	0C	140A03	1CB080	0D1C05	0DDE8D	0673D4	0AE002	1B3A17	07AA84	
239	239	0C	140A03	1CB080	0D1C05	0DDE8D	0673D4	0AE002	1B3A17	07AA84	
240	240	0C	140A03	1CB080	0D1C05	0DDE8D	0673D4	0AE002	1B3A17	07AA84	
241	241	0C	140A03	1CB080	0D1C05	0DDE8D	0673D4	0AE002	1B3A17	07AA84	
242	242	0C	140A03	1CB080	0D1C05	0DDE8D	0673D4	0AE002	1B3A17	07AA84	
243	243	0C	140A03	1CB080	0D1C05	0DDE8D	0673D4	0AE002	1B3A17	07AA84	
244	244	0C	140A03	1CB080	0D1C05	0DDE8D	0673D4	0AE002	1B3A17	07AA84	
245	245	0C	140A03	1CB080	0D1C05	0DDE8D	0673D4	0AE002	1B3A17	07AA84	
246	246	0C	140A03	1CB080	0D1C05	0DDE8D	0673D4	0AE002	1B3A17	07AA84	
247	247	0C	140A03	1CB080	0D1C05	0DDE8D	0673D4	0AE002	1B3A17	07AA84	
248	248	0C	140A03	1CB080	0D1C05	0DDE8D	0673D4	0AE002	1B3A17	07AA84	
249	249	0C	140A03	1CB080	0D1C05	0DDE8D	0673D4	0AE002	1B3A17	07AA84	
250	250	0C	140A03	1CB080	0D1C05	0DDE8D	0673D4	0AE002	1B3A17	07AA84	
251	251	0C	140A03	1CB080	0D1C05	0DDE8D	0673D4	0AE002	1B3A17	07AA84	
252	252	0C	140A03	1CB080	0D1C05	0DDE8D	0673D4	0AE002	1B3A17	07AA84	
253	253	0C	140A03	1CB080	0D1C05	0DDE8D	0673D4	0AE002	1B3A17	07AA84	
254	254	0C	140A03	1CB080	0D1C05	0DDE8D	0673D4	0AE002	1B3A17	07AA84	
255	255	0C	140A03	1CB080	0D1C05	0DDE8D	0673D4	0AE002	1B3A17	07AA84	
256	256	0C	140A03	1CB080	0D1C05	0DDE8D	0673D4	0AE002	1B3A17	07AA84	
257	257	0D	140A03	1CB080	0D1C05	0DDE8D	0673D4	0AE002	1B3A17	07AA84	
258	258	0D	140A03	1CB080	0D1C05	0DDE8D	0673D4	0AE002	1B3A17	07AA84	
259	259	0D	140A03	1CB080	0D1C05	0DDE8D	0673D4	0AE002	1B3A17	07AA84	
260	260	0D	140A03	1CB080	0D1C05	0DDE8D	0A73D4	0AE002	1B3A17	07AA84	
261	261	0D	140A03	1CB080	0D1C05	0DDE8D	0A73D4	0AE002	1B3A17	07AA84	
262	262	0D	140A03	1CB080	0D1C05	0DDE8D	0A73D4	0AE002	1B3A17	07AA84	
263	263	0D	140A03	1CB080	0D1C05	0DDE8D	0A73D4	0AE002	1B3A17	07AA84	
264	264	0D	140A03	1CB080	0D1C05	0DDE8D	0A73D4	06DF85	1B3A17	07AA84	
265	265	0D	140A03	1CB080	0D1C05	0DDE8D	0A73D4	06DF85	1B3A17	07AA84	
266	266	0D	140A03	1CB080	0D1C05	0DDE8D	0A73D4	0ADF85	1B3A17	07AA84	
267	267	0D	140A03	1CB080	0D1C05	0DDE8D	0A73D4	0ADF85	1B3A17	07AA84	
268	268	0D	140A03	1CB080	0D1C05	0DCE06	0A73D4	0ADF85	1B3A17	07AA84	
269	269	0D	140A03	1CB080	0D1C05	0DCE06	0A73D4	0ADF85	1B3A17	07AA84	
270	270	0D	140A03	10E60A	0D1C05	0DCE06	0A73D4	0ADF85	1B3A17	07AA84	
271	271	0D	140A03	10E60A	0D1C05	0DCE06	0A73D4	0ADF85	1B3A17	07AA84	
272	272	0D	140A03	10E60A	0D1C05	0DCE06	0A73D4	0ADF85	1B3082	07AA84	
273	273	0D	140A03	10E60A	0D1C05	0DCE06	0A73D4	0ADF85	1B3082	07AA84	
274	274	0D	140A03	10E60A	0D1C05	0DCE06	0A73D4	0ADF85	1F3082	07AA84	
275	275	0D	140A03	10E60A	0D1C05	0DCE06	0A73D4	0ADF85	1F3082	07AA84	
276	276	0D	140A03	04940C	0D1C05	0DCE06	0A73D4	0ADF85	1F3082	07AA84	
277	277	0D	140A03	04940C	0D1C05	0DCE06	0A73D4	0ADF85	1F3082	07AA84	
278	278	0D	140A03	08940C	0D1C05	0DCE06	0A73D4	0ADF85	1F3082	07AA84	
279	279	0D	140A03	08940C	0D1C05	0DCE06	0A73D4	0ADF85	1F3082	07AA84	
280	280	0D	140A03	0CCF83	0D1C05	0DCE06	0A73D4	0ADF85	1F3082	07AA84	
281	281	0D	140A03	0CCF83	0D1C05	0DCE06	0A73D4	0ADF85	1F3082	07AA84	
282	282	0D	140A03	0CCF83	0D1C05	0DCE06	0A73D4	0ADF85	1F3082	07AA84	
283	283	0D	140A03	0CCF83	0D1C05	0DCE06	0A73D4	0ADF85	1F3082	07AA84	
284	284	0D	140A03	0CCF83	0D1C05	0DCE06	0A73D4	0ADF85	1F3082	07AA84	
285	285	0D	140A03	0CCF83	0D1C05	0DCE06	0A73D4	0ADF85	1F3082	07AA84	
286	286	0D	140A03	0CCF83	0D1C05	0DCE06	0A73D4	0ADF85	1F3082	07AA84	
287	287	0D	140A03	0CCF83	0D1C05	0DCE06	0A73D4	0ADF85	1F3082	07AA84	
288	288	0D	140A03	0CCF83	0D1C05	0DCE06	0A73D4	0ADF85	1F3082	07AA84	
289	289	0D	140A03	0CCF83	0D1C05	0DCE06	0A73D4	0ADF85	1F3082	07AA84	
290	290	0D	140A03	0CCF83	0D1C05	0DCE06	0A73D4	0ADF85	1F3082	07AA84	
291	291	0D	140A03	0CCF83	0D1C05	0DCE06	0A73D4	0ADF85	1F3082	07AA84	
292	292	0D	140A03	0CCF83	0D1C05	0DCE06	0A73D4	0ADF85	1F3082	07AA84	
293	293	0D	140A03	0CCF83	0D1C05	0DCE06	0A73D4	0ADF85	1F3082	07AA84	
294	294	0D	140A03	0CCF83	0D1C05	0DCE06	0A73D4	0ADF85	1F3082	07AA84	
